(1702832348.736939) can0 0C2#61E880000A002C
(1702832348.746982) can0 0C2#61E880000B002B
(1702832348.756983) can0 0C2#61E880000C002A
(1702832348.766942) can0 0C2#61E880000D0029
(1702832348.776922) can0 0C2#61E880000E0028
(1702832348.786990) can0 0C2#61E880000F0027
(1702832348.797024) can0 0C2#61E88000000036
(1702832348.806949) can0 0C2#61E88000010035
(1702832348.816890) can0 0C2#61E88000020034
(1702832348.826897) can0 0C2#61E88000030033
(1702832348.836897) can0 0C2#61E88000040032
(1702832348.846894) can0 0C2#61E88000050031
(1702832348.856891) can0 0C2#61E88000060030
(1702832348.866903) can0 0C2#61E8800007002F
(1702832348.876954) can0 0C2#61E8800008002E
(1702832348.886930) can0 0C2#61E8800009002D
(1702832348.896927) can0 0C2#61E880000A002C
(1702832348.906927) can0 0C2#61E880000B002B
(1702832348.916928) can0 0C2#61E880000C002A
(1702832348.926986) can0 0C2#61E880000D0029
(1702832348.937034) can0 0C2#61E880000E0028
(1702832348.946945) can0 0C2#61E880000F0027
(1702832348.956946) can0 0C2#61E88000000036
(1702832348.966902) can0 0C2#61E88000010035
(1702832348.976921) can0 0C2#61E88000020034
(1702832348.986919) can0 0C2#61E88000030033
(1702832348.996940) can0 0C2#61E88000040032
(1702832349.006937) can0 0C2#61E88000050031
(1702832349.016904) can0 0C2#61E88000060030
(1702832349.026904) can0 0C2#61E8800007002F
(1702832349.036952) can0 0C2#61E8800008002E
(1702832349.046957) can0 0C2#61E8800009002D
(1702832349.057025) can0 0C2#61E880000A002C
(1702832349.066989) can0 0C2#61E880000B002B
(1702832349.076949) can0 0C2#61E880000C002A
(1702832349.086988) can0 0C2#61E880000D0029
(1702832349.096927) can0 0C2#61E880000E0028
(1702832349.106956) can0 0C2#61E880000F0027
(1702832349.116996) can0 0C2#61E88000000036
(1702832349.126953) can0 0C2#61E88000010035
(1702832349.136995) can0 0C2#61E88000020034
(1702832349.146993) can0 0C2#61E88000030033
(1702832349.156996) can0 0C2#61E88000040032
(1702832349.166997) can0 0C2#61E88000050031
(1702832349.176997) can0 0C2#61E88000060030
(1702832349.187124) can0 0C2#61E8800007002F
(1702832349.196944) can0 0C2#61E8800008002E
(1702832349.206992) can0 0C2#61E8800009002D
(1702832349.217035) can0 0C2#61E880000A002C
(1702832349.226992) can0 0C2#61E880000B002B
(1702832349.237031) can0 0C2#61E880000C002A
(1702832349.246958) can0 0C2#61E880000D0029
(1702832349.257165) can0 0C2#61E880000E0028
(1702832349.267123) can0 0C2#61E880000F0027
(1702832349.277120) can0 0C2#61E88000000036
(1702832349.287116) can0 0C2#61E88000010035
(1702832349.297124) can0 0C2#61E88000020034
(1702832349.306993) can0 0C2#61E88000030033
(1702832349.317027) can0 0C2#61E88000040032
(1702832349.327026) can0 0C2#61E88000050031
(1702832349.337035) can0 0C2#61E88000060030
(1702832349.347117) can0 0C2#61E8800007002F
(1702832349.357058) can0 0C2#61E8800008002E
(1702832349.367081) can0 0C2#61E8800009002D
(1702832349.377161) can0 0C2#61E880000A002C
(1702832349.387126) can0 0C2#61E880000B002B
(1702832349.397126) can0 0C2#61E880000C002A
(1702832349.407125) can0 0C2#61E880000D0029
(1702832349.417125) can0 0C2#61E880000E0028
(1702832349.427117) can0 0C2#61E880000F0027
(1702832349.437025) can0 0C2#61E88000000036
(1702832349.447111) can0 0C2#61E88000010035
(1702832349.457114) can0 0C2#61E88000020034
(1702832349.467120) can0 0C2#61E88000030033
(1702832349.477130) can0 0C2#61E88000040032
(1702832349.487124) can0 0C2#61E88000050031
(1702832349.497165) can0 0C2#61E88000060030
(1702832349.507129) can0 0C2#61E8800007002F
(1702832349.517128) can0 0C2#61E8800008002E
(1702832349.527086) can0 0C2#61E8800009002D
(1702832349.537131) can0 0C2#61E880000A002C
(1702832349.547128) can0 0C2#61E880000B002B
(1702832349.557108) can0 0C2#61E880000C002A
(1702832349.567120) can0 0C2#61E880000D0029
(1702832349.577079) can0 0C2#61E880000E0028
(1702832349.587127) can0 0C2#61E880000F0027
(1702832349.597167) can0 0C2#61E88000000036
(1702832349.607093) can0 0C2#61E88000010035
(1702832349.617127) can0 0C2#61E88000020034
(1702832349.627083) can0 0C2#61E88000030033
(1702832349.637127) can0 0C2#61E88000040032
(1702832349.647126) can0 0C2#61E88000050031
(1702832349.657165) can0 0C2#61E88000060030
(1702832349.667130) can0 0C2#61E8800007002F
(1702832349.677127) can0 0C2#61E8800008002E
(1702832349.687087) can0 0C2#61E8800009002D
(1702832349.697128) can0 0C2#61E880000A002C
(1702832349.707129) can0 0C2#61E880000B002B
(1702832349.717128) can0 0C2#61E880000C002A
(1702832349.727085) can0 0C2#61E880000D0029
(1702832349.737127) can0 0C2#61E880000E0028
(1702832349.747075) can0 0C2#61E880000F0027
(1702832349.757034) can0 0C2#61E88000000036
(1702832349.767084) can0 0C2#61E88000010035
(1702832349.777085) can0 0C2#61E88000020034
(1702832349.787124) can0 0C2#61E88000030033
(1702832349.797122) can0 0C2#61E88000040032
(1702832349.807124) can0 0C2#61E88000050031
(1702832349.817126) can0 0C2#61E88000060030
(1702832349.827086) can0 0C2#61E8800007002F
(1702832349.837131) can0 0C2#61E8800008002E
(1702832349.847078) can0 0C2#61E8800009002D
(1702832349.857134) can0 0C2#61E880000A002C
(1702832349.867133) can0 0C2#61E880000B002B
(1702832349.877088) can0 0C2#61E880000C002A
(1702832349.887131) can0 0C2#61E880000D0029
(1702832349.897128) can0 0C2#61E880000E0028
(1702832349.907169) can0 0C2#61E880000F0027
(1702832349.917132) can0 0C2#61E88000000036
(1702832349.927085) can0 0C2#61E88000010035
(1702832349.937086) can0 0C2#61E88000020034
(1702832349.947082) can0 0C2#61E88000030033
(1702832349.957071) can0 0C2#61E88000040032
(1702832349.967096) can0 0C2#61E88000050031
(1702832349.977042) can0 0C2#61E88000060030
(1702832349.987035) can0 0C2#61E8800007002F
(1702832349.997129) can0 0C2#61E8800008002E
(1702832350.007093) can0 0C2#61E8800009002D
(1702832350.017132) can0 0C2#61E880000A002C
(1702832350.027127) can0 0C2#61E880000B002B
(1702832350.037110) can0 0C2#61E880000C002A
(1702832350.047174) can0 0C2#61E880000D0029
(1702832350.057126) can0 0C2#61E880000E0028
(1702832350.067127) can0 0C2#61E880000F0027
(1702832350.077093) can0 0C2#61E88000000036
(1702832350.087040) can0 0C2#61E88000010035
(1702832350.097134) can0 0C2#61E88000020034
(1702832350.107173) can0 0C2#61E88000030033
(1702832350.117040) can0 0C2#61E88000040032
(1702832350.127168) can0 0C2#61E88000050031
(1702832350.137117) can0 0C2#61E88000060030
(1702832350.147131) can0 0C2#61E8800007002F
(1702832350.157127) can0 0C2#61E8800008002E
(1702832350.167087) can0 0C2#61E8800009002D
(1702832350.177095) can0 0C2#61E880000A002C
(1702832350.187135) can0 0C2#61E880000B002B
(1702832350.197091) can0 0C2#61E880000C002A
(1702832350.207134) can0 0C2#61E880000D0029
(1702832350.217139) can0 0C2#61E880000E0028
(1702832350.227087) can0 0C2#61E880000F0027
(1702832350.237139) can0 0C2#61E88000000036
(1702832350.247050) can0 0C2#61E88000010035
(1702832350.257090) can0 0C2#61E88000020034
(1702832350.267131) can0 0C2#61E88000030033
(1702832350.277093) can0 0C2#61E88000040032
(1702832350.287174) can0 0C2#61E88000050031
(1702832350.297138) can0 0C2#61E88000060030
(1702832350.307131) can0 0C2#61E8800007002F
(1702832350.317170) can0 0C2#61E8800008002E
(1702832350.327097) can0 0C2#61E8800009002D
(1702832350.337138) can0 0C2#61E880000A002C
(1702832350.347135) can0 0C2#61E880000B002B
(1702832350.357094) can0 0C2#61E880000C002A
(1702832350.367138) can0 0C2#61E880000D0029
(1702832350.377131) can0 0C2#61E880000E0028
(1702832350.387137) can0 0C2#61E880000F0027
(1702832350.397175) can0 0C2#61E88000000036
(1702832350.407100) can0 0C2#61E88000010035
(1702832350.417140) can0 0C2#61E88000020034
(1702832350.427136) can0 0C2#61E88000030033
(1702832350.437181) can0 0C2#61E88000040032
(1702832350.447180) can0 0C2#61E88000050031
(1702832350.457136) can0 0C2#61E88000060030
(1702832350.467141) can0 0C2#61E8800007002F
(1702832350.477142) can0 0C2#61E8800008002E
(1702832350.487101) can0 0C2#61E8800009002D
(1702832350.497141) can0 0C2#61E880000A002C
(1702832350.507137) can0 0C2#61E880000B002B
(1702832350.517135) can0 0C2#61E880000C002A
(1702832350.527135) can0 0C2#61E880000D0029
(1702832350.537083) can0 0C2#61E880000E0028
(1702832350.547145) can0 0C2#61E880000F0027
(1702832350.557078) can0 0C2#61E88000000036
(1702832350.567107) can0 0C2#61E88000010035
(1702832350.577097) can0 0C2#61E88000020034
(1702832350.587135) can0 0C2#61E88000030033
(1702832350.597180) can0 0C2#61E88000040032
(1702832350.607097) can0 0C2#61E88000050031
(1702832350.617098) can0 0C2#61E88000060030
(1702832350.627134) can0 0C2#61E8800007002F
(1702832350.637143) can0 0C2#61E8800008002E
(1702832350.647094) can0 0C2#61E8800009002D
(1702832350.657098) can0 0C2#61E880000A002C
(1702832350.667137) can0 0C2#61E880000B002B
(1702832350.677052) can0 0C2#61E880000C002A
(1702832350.687142) can0 0C2#61E880000D0029
(1702832350.697142) can0 0C2#61E880000E0028
(1702832350.707138) can0 0C2#61E880000F0027
(1702832350.717144) can0 0C2#61E88000000036
(1702832350.727061) can0 0C2#61E88000010035
(1702832350.737175) can0 0C2#61E88000020034
(1702832350.747145) can0 0C2#61E88000030033
(1702832350.757099) can0 0C2#61E88000040032
(1702832350.767176) can0 0C2#61E88000050031
(1702832350.777148) can0 0C2#61E88000060030
(1702832350.787104) can0 0C2#61E8800007002F
(1702832350.797145) can0 0C2#61E8800008002E
(1702832350.807107) can0 0C2#61E8800009002D
(1702832350.817137) can0 0C2#61E880000A002C
(1702832350.827138) can0 0C2#61E880000B002B
(1702832350.837141) can0 0C2#61E880000C002A
(1702832350.847145) can0 0C2#61E880000D0029
(1702832350.857145) can0 0C2#61E880000E0028
(1702832350.867143) can0 0C2#61E880000F0027
(1702832350.877148) can0 0C2#61E88000000036
(1702832350.887100) can0 0C2#61E88000010035
(1702832350.897146) can0 0C2#61E88000020034
(1702832350.907100) can0 0C2#61E88000030033
(1702832350.917181) can0 0C2#61E88000040032
(1702832350.927137) can0 0C2#61E88000050031
(1702832350.937146) can0 0C2#61E88000060030
(1702832350.947146) can0 0C2#61E8800007002F
(1702832350.957145) can0 0C2#61E8800008002E
(1702832350.967103) can0 0C2#61E8800009002D
(1702832350.977093) can0 0C2#61E880000A002C
(1702832350.987181) can0 0C2#61E880000B002B
(1702832350.997140) can0 0C2#61E880000C002A
(1702832351.007140) can0 0C2#61E880000D0029
(1702832351.017147) can0 0C2#61E880000E0028
(1702832351.027148) can0 0C2#61E880000F0027
(1702832351.037188) can0 0C2#61E88000000036
(1702832351.047179) can0 0C2#61E88000010035
(1702832351.057106) can0 0C2#61E88000020034
(1702832351.067102) can0 0C2#61E88000030033
(1702832351.077140) can0 0C2#61E88000040032
(1702832351.087145) can0 0C2#61E88000050031
(1702832351.097148) can0 0C2#61E88000060030
(1702832351.107142) can0 0C2#61E8800007002F
(1702832351.117149) can0 0C2#61E8800008002E
(1702832351.127109) can0 0C2#61E8800009002D
(1702832351.137071) can0 0C2#61E880000A002C
(1702832351.147149) can0 0C2#61E880000B002B
(1702832351.157088) can0 0C2#61E880000C002A
(1702832351.167086) can0 0C2#61E880000D0029
(1702832351.177180) can0 0C2#61E880000E0028
(1702832351.187050) can0 0C2#61E880000F0027
(1702832351.197044) can0 0C2#61E88000000036
(1702832351.207048) can0 0C2#61E88000010035
(1702832351.217078) can0 0C2#61E88000020034
(1702832351.227081) can0 0C2#61E88000030033
(1702832351.237080) can0 0C2#61E88000040032
(1702832351.247083) can0 0C2#61E88000050031
(1702832351.257079) can0 0C2#61E88000060030
(1702832351.267079) can0 0C2#61E8800007002F
(1702832351.277082) can0 0C2#61E8800008002E
(1702832351.287080) can0 0C2#61E8800009002D
(1702832351.297083) can0 0C2#61E880000A002C
(1702832351.307079) can0 0C2#61E880000B002B
(1702832351.317145) can0 0C2#61E880000C002A
(1702832351.327153) can0 0C2#61E880000D0029
(1702832351.337152) can0 0C2#61E880000E0028
(1702832351.347154) can0 0C2#61E880000F0027
(1702832351.357152) can0 0C2#61E88000000036
(1702832351.367153) can0 0C2#61E88000010035
(1702832351.377156) can0 0C2#61E88000020034
(1702832351.387105) can0 0C2#61E88000030033
(1702832351.397112) can0 0C2#61E88000040032
(1702832351.407150) can0 0C2#61E88000050031
(1702832351.417154) can0 0C2#61E88000060030
(1702832351.427154) can0 0C2#61E8800007002F
(1702832351.437189) can0 0C2#61E8800008002E
(1702832351.447148) can0 0C2#61E8800009002D
(1702832351.457154) can0 0C2#61E880000A002C
(1702832351.467155) can0 0C2#61E880000B002B
(1702832351.477154) can0 0C2#61E880000C002A
(1702832351.487186) can0 0C2#61E880000D0029
(1702832351.497153) can0 0C2#61E880000E0028
(1702832351.507149) can0 0C2#61E880000F0027
(1702832351.517187) can0 0C2#61E88000000036
(1702832351.527106) can0 0C2#61E88000010035
(1702832351.537157) can0 0C2#61E88000020034
(1702832351.547155) can0 0C2#61E88000030033
(1702832351.557135) can0 0C2#61E88000040032
(1702832351.567191) can0 0C2#61E88000050031
(1702832351.577099) can0 0C2#61E88000060030
(1702832351.587148) can0 0C2#61E8800007002F
(1702832351.597104) can0 0C2#61E8800008002E
(1702832351.607105) can0 0C2#61E8800009002D
(1702832351.617158) can0 0C2#61E880000A002C
(1702832351.627147) can0 0C2#61E880000B002B
(1702832351.637157) can0 0C2#61E880000C002A
(1702832351.647154) can0 0C2#61E880000D0029
(1702832351.657158) can0 0C2#61E880000E0028
(1702832351.667163) can0 0C2#61E880000F0027
(1702832351.677159) can0 0C2#61E88000000036
(1702832351.687156) can0 0C2#61E88000010035
(1702832351.697159) can0 0C2#61E88000020034
(1702832351.707152) can0 0C2#61E88000030033
(1702832351.717159) can0 0C2#61E88000040032
(1702832351.727158) can0 0C2#61E88000050031
(1702832351.737116) can0 0C2#61E88000060030
(1702832351.747151) can0 0C2#61E8800007002F
(1702832351.757162) can0 0C2#61E8800008002E
(1702832351.767115) can0 0C2#61E8800009002D
(1702832351.777198) can0 0C2#61E880000A002C
(1702832351.787153) can0 0C2#61E880000B002B
(1702832351.797156) can0 0C2#61E880000C002A
(1702832351.807152) can0 0C2#61E880000D0029
(1702832351.817193) can0 0C2#61E880000E0028
(1702832351.827090) can0 0C2#61E880000F0027
(1702832351.837095) can0 0C2#61E88000000036
(1702832351.847092) can0 0C2#61E88000010035
(1702832351.857092) can0 0C2#61E88000020034
(1702832351.867088) can0 0C2#61E88000030033
(1702832351.877077) can0 0C2#61E88000040032
(1702832351.887068) can0 0C2#61E88000050031
(1702832351.897053) can0 0C2#61E88000060030
(1702832351.907052) can0 0C2#61E8800007002F
(1702832351.917053) can0 0C2#61E8800008002E
(1702832351.927102) can0 0C2#61E8800009002D
(1702832351.937070) can0 0C2#61E880000A002C
(1702832351.947109) can0 0C2#61E880000B002B
(1702832351.957063) can0 0C2#61E880000C002A
(1702832351.967064) can0 0C2#61E880000D0029
(1702832351.977065) can0 0C2#61E880000E0028
(1702832351.987045) can0 0C2#61E880000F0027
(1702832351.997065) can0 0C2#61E88000000036
(1702832352.007049) can0 0C2#61E88000010035
(1702832352.017048) can0 0C2#61E88000020034
(1702832352.027054) can0 0C2#61E88000030033
(1702832352.037049) can0 0C2#61E88000040032
(1702832352.047051) can0 0C2#61E88000050031
(1702832352.057064) can0 0C2#61E88000060030
(1702832352.067061) can0 0C2#61E8800007002F
(1702832352.077063) can0 0C2#61E8800008002E
(1702832352.087064) can0 0C2#61E8800009002D
(1702832352.097061) can0 0C2#61E880000A002C
(1702832352.107062) can0 0C2#61E880000B002B
(1702832352.117044) can0 0C2#61E880000C002A
(1702832352.127063) can0 0C2#61E880000D0029
(1702832352.137062) can0 0C2#61E880000E0028
(1702832352.147067) can0 0C2#61E880000F0027
(1702832352.157048) can0 0C2#61E88000000036
(1702832352.167062) can0 0C2#61E88000010035
(1702832352.177062) can0 0C2#61E88000020034
(1702832352.187085) can0 0C2#61E88000030033
(1702832352.197196) can0 0C2#61E88000040032
(1702832352.207122) can0 0C2#61E88000050031
(1702832352.217169) can0 0C2#61E88000060030
(1702832352.227163) can0 0C2#61E8800007002F
(1702832352.237205) can0 0C2#61E8800008002E
(1702832352.247131) can0 0C2#61E8800009002D
(1702832352.257067) can0 0C2#61E880000A002C
(1702832352.267159) can0 0C2#61E880000B002B
(1702832352.277136) can0 0C2#61E880000C002A
(1702832352.287166) can0 0C2#61E880000D0029
(1702832352.297168) can0 0C2#61E880000E0028
(1702832352.307136) can0 0C2#61E880000F0027
(1702832352.317158) can0 0C2#61E88000000036
(1702832352.327163) can0 0C2#61E88000010035
(1702832352.337161) can0 0C2#61E88000020034
(1702832352.347163) can0 0C2#61E88000030033
(1702832352.357102) can0 0C2#61E88000040032
(1702832352.367096) can0 0C2#61E88000050031
(1702832352.377099) can0 0C2#61E88000060030
(1702832352.387224) can0 0C2#61E8800007002F
(1702832352.397096) can0 0C2#61E8800008002E
(1702832352.407096) can0 0C2#61E8800009002D
(1702832352.417227) can0 0C2#61E880000A002C
(1702832352.427048) can0 0C2#61E880000B002B
(1702832352.437177) can0 0C2#61E880000C002A
(1702832352.447114) can0 0C2#61E880000D0029
(1702832352.457104) can0 0C2#61E880000E0028
(1702832352.467053) can0 0C2#61E880000F0027
(1702832352.477116) can0 0C2#61E88000000036
(1702832352.487232) can0 0C2#61E88000010035
(1702832352.497222) can0 0C2#61E88000020034
(1702832352.507222) can0 0C2#61E88000030033
(1702832352.517151) can0 0C2#61E88000040032
(1702832352.527289) can0 0C2#61E88000050031
(1702832352.537202) can0 0C2#61E88000060030
(1702832352.547287) can0 0C2#61E8800007002F
(1702832352.557154) can0 0C2#61E8800008002E
(1702832352.567119) can0 0C2#61E8800009002D
(1702832352.577290) can0 0C2#61E880000A002C
(1702832352.587296) can0 0C2#61E880000B002B
(1702832352.597257) can0 0C2#61E880000C002A
(1702832352.607203) can0 0C2#61E880000D0029
(1702832352.617295) can0 0C2#61E880000E0028
(1702832352.627329) can0 0C2#61E880000F0027
(1702832352.637297) can0 0C2#61E88000000036
(1702832352.647290) can0 0C2#61E88000010035
(1702832352.657293) can0 0C2#61E88000020034
(1702832352.667296) can0 0C2#61E88000030033
(1702832352.677295) can0 0C2#61E88000040032
(1702832352.687290) can0 0C2#61E88000050031
(1702832352.697300) can0 0C2#61E88000060030
(1702832352.707330) can0 0C2#61E8800007002F
(1702832352.717248) can0 0C2#61E8800008002E
(1702832352.727254) can0 0C2#61E8800009002D
(1702832352.737296) can0 0C2#61E880000A002C
(1702832352.747291) can0 0C2#61E880000B002B
(1702832352.757295) can0 0C2#61E880000C002A
(1702832352.767298) can0 0C2#61E880000D0029
(1702832352.777209) can0 0C2#61E880000E0028
(1702832352.787298) can0 0C2#61E880000F0027
(1702832352.797331) can0 0C2#61E88000000036
(1702832352.807252) can0 0C2#61E88000010035
(1702832352.817292) can0 0C2#61E78000020035
(1702832352.827301) can0 0C2#61E27EC003007B
(1702832352.837302) can0 0C2#61D87C600400E6
(1702832352.847297) can0 0C2#61CC7B600500F2
(1702832352.857301) can0 0C2#61C27C0006005A
(1702832352.867256) can0 0C2#61B97C40070022
(1702832352.877301) can0 0C2#61B57DE0080084
(1702832352.887258) can0 0C2#61B17E800900E6
(1702832352.897301) can0 0C2#61AB7E200A004B
(1702832352.907291) can0 0C2#61A57D600B0011
(1702832352.917300) can0 0C2#619F7D800C00F6
(1702832352.927339) can0 0C2#61977D600D001D
(1702832352.937300) can0 0C2#618D7C800E0007
(1702832352.947296) can0 0C2#FFFFFFFF4F0BA9
(1702832352.957255) can0 0C2#FFFFFFFF400BB8
(1702832352.967263) can0 0C2#FFFFFFFF410BB7
(1702832352.977233) can0 0C2#FFFFFFFF420BB6
(1702832352.987216) can0 0C2#FFFFFFFF430BB5
(1702832352.997193) can0 0C2#FFFFFFFF440BB4
(1702832353.007206) can0 0C2#FFFFFFFF450BB3
(1702832353.017259) can0 0C2#FFFFFFFF460BB2
(1702832353.027296) can0 0C2#FFFFFFFF470BB1
(1702832353.037262) can0 0C2#FFFFFFFF480BB0
(1702832353.047210) can0 0C2#FFFFFFFF490BAF
(1702832353.057298) can0 0C2#FFFFFFFF4A0BAE
(1702832353.067297) can0 0C2#FFFFFFFF4B0BAD
(1702832353.077296) can0 0C2#FFFFFFFF4C0BAC
(1702832353.087302) can0 0C2#FFFFFFFF4D0BAB
(1702832353.097343) can0 0C2#FFFFFFFF4E0BAA
(1702832353.107335) can0 0C2#FFFFFFFF4F0BA9
(1702832353.117304) can0 0C2#FFFFFFFF400BB8
(1702832353.127257) can0 0C2#FFFFFFFF410BB7
(1702832353.137305) can0 0C2#FFFFFFFF420BB6
(1702832353.147304) can0 0C2#FFFFFFFF430BB5
(1702832353.157302) can0 0C2#FFFFFFFF440BB4
(1702832353.167259) can0 0C2#FFFFFFFF450BB3
(1702832353.177259) can0 0C2#FFFFFFFF460BB2
(1702832353.187304) can0 0C2#FFFFFFFF470BB1
(1702832353.197306) can0 0C2#FFFFFFFF480BB0
(1702832353.207260) can0 0C2#FFFFFFFF490BAF
(1702832353.217264) can0 0C2#FFFFFFFF4A0BAE
(1702832353.227207) can0 0C2#FFFFFFFF4B0BAD
(1702832353.237299) can0 0C2#FFFFFFFF4C0BAC
(1702832353.247339) can0 0C2#FFFFFFFF4D0BAB
(1702832353.257258) can0 0C2#FFFFFFFF4E0BAA
(1702832353.267308) can0 0C2#FFFFFFFF4F0BA9
(1702832353.277264) can0 0C2#FFFFFFFF400BB8
(1702832353.287259) can0 0C2#FFFFFFFF410BB7
(1702832353.297305) can0 0C2#FFFFFFFF420BB6
(1702832353.307260) can0 0C2#FFFFFFFF430BB5
(1702832353.317267) can0 0C2#FFFFFFFF440BB4
(1702832353.327307) can0 0C2#FFFFFFFF450BB3
(1702832353.337301) can0 0C2#FFFFFFFF460BB2
(1702832353.347306) can0 0C2#FFFFFFFF470BB1
(1702832353.357284) can0 0C2#FFFFFFFF480BB0
(1702832353.367305) can0 0C2#FFFFFFFF490BAF
(1702832353.377306) can0 0C2#FFFFFFFF4A0BAE
(1702832353.387348) can0 0C2#FFFFFFFF4B0BAD
(1702832353.397305) can0 0C2#FFFFFFFF4C0BAC
(1702832353.407266) can0 0C2#FFFFFFFF4D0BAB
(1702832353.417308) can0 0C2#FFFFFFFF4E0BAA
(1702832353.427310) can0 0C2#FFFFFFFF4F0BA9
(1702832353.437304) can0 0C2#FFFFFFFF400BB8
(1702832353.447267) can0 0C2#FFFFFFFF410BB7
(1702832353.457340) can0 0C2#FFFFFFFF420BB6
(1702832353.467256) can0 0C2#FFFFFFFF430BB5
(1702832353.477209) can0 0C2#FFFFFFFF440BB4
(1702832353.487346) can0 0C2#FFFFFFFF450BB3
(1702832353.497308) can0 0C2#FFFFFFFF460BB2
(1702832353.507301) can0 0C2#FFFFFFFF470BB1
(1702832353.517309) can0 0C2#FFFFFFFF480BB0
(1702832353.527303) can0 0C2#FFFFFFFF490BAF
(1702832353.537311) can0 0C2#FFFFFFFF4A0BAE
(1702832353.547304) can0 0C2#FFFFFFFF4B0BAD
(1702832353.557244) can0 0C2#FFFFFFFF4C0BAC
(1702832353.567242) can0 0C2#FFFFFFFF4D0BAB
(1702832353.577240) can0 0C2#FFFFFFFF4E0BAA
(1702832353.587241) can0 0C2#FFFFFFFF4F0BA9
(1702832353.597241) can0 0C2#FFFFFFFF400BB8
(1702832353.607245) can0 0C2#FFFFFFFF410BB7
(1702832353.617242) can0 0C2#FFFFFFFF420BB6
(1702832353.627238) can0 0C2#FFFFFFFF430BB5
(1702832353.637239) can0 0C2#FFFFFFFF440BB4
(1702832353.647241) can0 0C2#FFFFFFFF450BB3
(1702832353.657239) can0 0C2#FFFFFFFF460BB2
(1702832353.667243) can0 0C2#FFFFFFFF470BB1
(1702832353.677254) can0 0C2#FFFFFFFF480BB0
(1702832353.687240) can0 0C2#FFFFFFFF490BAF
(1702832353.697243) can0 0C2#FFFFFFFF4A0BAE
(1702832353.707263) can0 0C2#FFFFFFFF4B0BAD
(1702832353.717271) can0 0C2#FFFFFFFF4C0BAC
(1702832353.727351) can0 0C2#FFFFFFFF4D0BAB
(1702832353.737218) can0 0C2#FFFFFFFF4E0BAA
(1702832353.747308) can0 0C2#FFFFFFFF4F0BA9
(1702832353.757267) can0 0C2#FFFFFFFF400BB8
(1702832353.767304) can0 0C2#FFFFFFFF410BB7
(1702832353.777311) can0 0C2#FFFFFFFF420BB6
(1702832353.787314) can0 0C2#FFFFFFFF430BB5
(1702832353.797313) can0 0C2#FFFFFFFF440BB4
(1702832353.807268) can0 0C2#FFFFFFFF450BB3
(1702832353.817307) can0 0C2#FFFFFFFF460BB2
(1702832353.827341) can0 0C2#FFFFFFFF470BB1
(1702832353.837315) can0 0C2#FFFFFFFF480BB0
(1702832353.847282) can0 0C2#FFFFFFFF490BAF
(1702832353.857267) can0 0C2#FFFFFFFF4A0BAE
(1702832353.867320) can0 0C2#FFFFFFFF4B0BAD
(1702832353.877315) can0 0C2#FFFFFFFF4C0BAC
(1702832353.887310) can0 0C2#FFFFFFFF4D0BAB
(1702832353.897317) can0 0C2#FFFFFFFF4E0BAA
(1702832353.907278) can0 0C2#FFFFFFFF4F0BA9
(1702832353.917316) can0 0C2#FFFFFFFF400BB8
(1702832353.927276) can0 0C2#FFFFFFFF410BB7
(1702832353.937315) can0 0C2#FFFFFFFF420BB6
(1702832353.947311) can0 0C2#FFFFFFFF430BB5
(1702832353.957275) can0 0C2#FFFFFFFF440BB4
(1702832353.967268) can0 0C2#FFFFFFFF450BB3
(1702832353.977241) can0 0C2#FFFFFFFF460BB2
(1702832353.987310) can0 0C2#FFFFFFFF470BB1
(1702832353.997265) can0 0C2#FFFFFFFF480BB0
(1702832354.007222) can0 0C2#FFFFFFFF490BAF
(1702832354.017310) can0 0C2#FFFFFFFF4A0BAE
(1702832354.027269) can0 0C2#FFFFFFFF4B0BAD
(1702832354.037312) can0 0C2#FFFFFFFF4C0BAC
(1702832354.047312) can0 0C2#FFFFFFFF4D0BAB
(1702832354.057312) can0 0C2#FFFFFFFF4E0BAA
(1702832354.067310) can0 0C2#FFFFFFFF4F0BA9
(1702832354.077349) can0 0C2#FFFFFFFF400BB8
(1702832354.087280) can0 0C2#FFFFFFFF410BB7
(1702832354.097317) can0 0C2#FFFFFFFF420BB6
(1702832354.107320) can0 0C2#FFFFFFFF430BB5
(1702832354.117226) can0 0C2#FFFFFFFF440BB4
(1702832354.127273) can0 0C2#FFFFFFFF450BB3
(1702832354.137314) can0 0C2#FFFFFFFF460BB2
(1702832354.147231) can0 0C2#FFFFFFFF470BB1
(1702832354.157273) can0 0C2#FFFFFFFF480BB0
(1702832354.167276) can0 0C2#FFFFFFFF490BAF
(1702832354.177312) can0 0C2#FFFFFFFF4A0BAE
(1702832354.187320) can0 0C2#FFFFFFFF4B0BAD
(1702832354.197351) can0 0C2#FFFFFFFF4C0BAC
(1702832354.207322) can0 0C2#FFFFFFFF4D0BAB
(1702832354.217359) can0 0C2#FFFFFFFF4E0BAA
(1702832354.227310) can0 0C2#FFFFFFFF4F0BA9
(1702832354.237323) can0 0C2#FFFFFFFF400BB8
(1702832354.247312) can0 0C2#FFFFFFFF410BB7
(1702832354.257322) can0 0C2#FFFFFFFF420BB6
(1702832354.267311) can0 0C2#FFFFFFFF430BB5
(1702832354.277367) can0 0C2#FFFFFFFF440BB4
(1702832354.287322) can0 0C2#FFFFFFFF450BB3
(1702832354.297335) can0 0C2#FFFFFFFF460BB2
(1702832354.307315) can0 0C2#FFFFFFFF470BB1
(1702832354.317316) can0 0C2#FFFFFFFF480BB0
(1702832354.327315) can0 0C2#FFFFFFFF490BAF
(1702832354.337362) can0 0C2#FFFFFFFF4A0BAE
(1702832354.347323) can0 0C2#FFFFFFFF4B0BAD
(1702832354.357322) can0 0C2#FFFFFFFF4C0BAC
(1702832354.367324) can0 0C2#FFFFFFFF4D0BAB
(1702832354.377342) can0 0C2#FFFFFFFF4E0BAA
(1702832354.387316) can0 0C2#FFFFFFFF4F0BA9
(1702832354.397224) can0 0C2#FFFFFFFF400BB8
(1702832354.407316) can0 0C2#FFFFFFFF410BB7
