(1707758080.542483) can0 0C2#7A7F80000F0077
(1707758080.552540) can0 0C2#7A7F8000000086
(1707758080.562576) can0 0C2#7A7F8000010085
(1707758080.572537) can0 0C2#7A7F8000020084
(1707758080.582537) can0 0C2#7A7F8000030083
(1707758080.592580) can0 0C2#7A7F8000040082
(1707758080.602584) can0 0C2#7A7F8000050081
(1707758080.612588) can0 0C2#7A7F8000060080
(1707758080.622580) can0 0C2#7A7F800007007F
(1707758080.632483) can0 0C2#7A7F800008007E
(1707758080.642620) can0 0C2#7A7F800009007D
(1707758080.652537) can0 0C2#7A7F80000A007C
(1707758080.662588) can0 0C2#7A7F80000B007B
(1707758080.672587) can0 0C2#7A7F80000C007A
(1707758080.682540) can0 0C2#7A7F80000D0079
(1707758080.692626) can0 0C2#7A7F80000E0078
(1707758080.702551) can0 0C2#7A7F80000F0077
(1707758080.712536) can0 0C2#7A7F8000000086
(1707758080.722585) can0 0C2#7A7F8000010085
(1707758080.732530) can0 0C2#7A7F8000020084
(1707758080.742528) can0 0C2#7A7F8000030083
(1707758080.752580) can0 0C2#7A7F8000040082
(1707758080.762586) can0 0C2#7A7F8000050081
(1707758080.772585) can0 0C2#7A7F8000060080
(1707758080.782530) can0 0C2#7A7F800007007F
(1707758080.792519) can0 0C2#7A7F800008007E
(1707758080.802620) can0 0C2#7A7F800009007D
(1707758080.812531) can0 0C2#7A7F80000A007C
(1707758080.822588) can0 0C2#7A7F80000B007B
(1707758080.832583) can0 0C2#7A7F80000C007A
(1707758080.842627) can0 0C2#7A7F80000D0079
(1707758080.852577) can0 0C2#7A7F80000E0078
(1707758080.862586) can0 0C2#7A7F80000F0077
(1707758080.872577) can0 0C2#7A7F8000000086
(1707758080.882586) can0 0C2#7A7F8000010085
(1707758080.892579) can0 0C2#7A7F8000020084
(1707758080.902575) can0 0C2#7A7F8000030083
(1707758080.912579) can0 0C2#7A7F8000040082
(1707758080.922586) can0 0C2#7A7F8000050081
(1707758080.932664) can0 0C2#7A7F8000060080
(1707758080.942580) can0 0C2#7A7F800007007F
(1707758080.952607) can0 0C2#7A7F800008007E
(1707758080.962579) can0 0C2#7A7F800009007D
(1707758080.972584) can0 0C2#7A7F80000A007C
(1707758080.982625) can0 0C2#7A7F80000B007B
(1707758080.992579) can0 0C2#7A7F80000C007A
(1707758081.002709) can0 0C2#7A7F80000D0079
(1707758081.012751) can0 0C2#7A7F80000E0078
(1707758081.022581) can0 0C2#7A7F80000F0077
(1707758081.032707) can0 0C2#7A7F8000000086
(1707758081.042580) can0 0C2#7A7F8000010085
(1707758081.052703) can0 0C2#7A7F8000020084
(1707758081.062572) can0 0C2#7A7F8000030083
(1707758081.072708) can0 0C2#7A7F8000040082
(1707758081.082709) can0 0C2#7A7F8000050081
(1707758081.092708) can0 0C2#7A7F8000060080
(1707758081.102744) can0 0C2#7A7F800007007F
(1707758081.112700) can0 0C2#7A7F800008007E
(1707758081.122584) can0 0C2#7A7F800009007D
(1707758081.132710) can0 0C2#7A7F80000A007C
(1707758081.142584) can0 0C2#7A7F80000B007B
(1707758081.152703) can0 0C2#7A7F80000C007A
(1707758081.162750) can0 0C2#7A7F80000D0079
(1707758081.172703) can0 0C2#7A7F80000E0078
(1707758081.182654) can0 0C2#7A7F80000F0077
(1707758081.192709) can0 0C2#7A7F8000000086
(1707758081.202653) can0 0C2#7A7F8000010085
(1707758081.212605) can0 0C2#7A7F8000020084
(1707758081.222648) can0 0C2#7A7F8000030083
(1707758081.232660) can0 0C2#7A7F8000040082
(1707758081.242606) can0 0C2#7A7F8000050081
(1707758081.252641) can0 0C2#7A7F8000060080
(1707758081.262602) can0 0C2#7A7F800007007F
(1707758081.272637) can0 0C2#7A7F800008007E
(1707758081.282645) can0 0C2#7A7F800009007D
(1707758081.292649) can0 0C2#7A7F80000A007C
(1707758081.302604) can0 0C2#7A7F80000B007B
(1707758081.312601) can0 0C2#7A7F80000C007A
(1707758081.322615) can0 0C2#7A7F80000D0079
(1707758081.332628) can0 0C2#7A7F80000E0078
(1707758081.342647) can0 0C2#7A7F80000F0077
(1707758081.352613) can0 0C2#7A7F8000000086
(1707758081.362608) can0 0C2#7A7F8000010085
(1707758081.372603) can0 0C2#7A7F8000020084
(1707758081.382601) can0 0C2#7A7F8000030083
(1707758081.392601) can0 0C2#7A7F8000040082
(1707758081.402594) can0 0C2#7A7F8000050081
(1707758081.412600) can0 0C2#7A7F8000060080
(1707758081.422590) can0 0C2#7A7F800007007F
(1707758081.432600) can0 0C2#7A7F800008007E
(1707758081.442593) can0 0C2#7A7F800009007D
(1707758081.452598) can0 0C2#7A7F80000A007C
(1707758081.462591) can0 0C2#7A7F80000B007B
(1707758081.472598) can0 0C2#7A7F80000C007A
(1707758081.482594) can0 0C2#7A7F80000D0079
(1707758081.492620) can0 0C2#7A7F80000E0078
(1707758081.502617) can0 0C2#7A7F80000F0077
(1707758081.512621) can0 0C2#7A7F8000000086
(1707758081.522624) can0 0C2#7A7F8000010085
(1707758081.532626) can0 0C2#7A7F8000020084
(1707758081.542622) can0 0C2#7A7F8000030083
(1707758081.552607) can0 0C2#7A7F8000040082
(1707758081.562624) can0 0C2#7A7F8000050081
(1707758081.572635) can0 0C2#7A7F8000060080
(1707758081.582612) can0 0C2#7A7F800007007F
(1707758081.592621) can0 0C2#7A7F800008007E
(1707758081.602638) can0 0C2#7A7F800009007D
(1707758081.612634) can0 0C2#7A7F80000A007C
(1707758081.622612) can0 0C2#7A7F80000B007B
(1707758081.632609) can0 0C2#7A7F80000C007A
(1707758081.642609) can0 0C2#7A7F80000D0079
(1707758081.652602) can0 0C2#7A7F80000E0078
(1707758081.662609) can0 0C2#7A7F80000F0077
(1707758081.672648) can0 0C2#7A7F8000000086
(1707758081.682642) can0 0C2#7A7F8000010085
(1707758081.692594) can0 0C2#7A7F8000020084
(1707758081.702649) can0 0C2#7A7F8000030083
(1707758081.712610) can0 0C2#7A7F8000040082
(1707758081.722637) can0 0C2#7A7F8000050081
(1707758081.732604) can0 0C2#7A7F8000060080
(1707758081.742593) can0 0C2#7A7F800007007F
(1707758081.752633) can0 0C2#7A7F800008007E
(1707758081.762635) can0 0C2#7A7F800009007D
(1707758081.772632) can0 0C2#7A7F80000A007C
(1707758081.782636) can0 0C2#7A7F80000B007B
(1707758081.792594) can0 0C2#7A7F80000C007A
(1707758081.802636) can0 0C2#7A7F80000D0079
(1707758081.812632) can0 0C2#7A7F80000E0078
(1707758081.822652) can0 0C2#7A7F80000F0077
(1707758081.832744) can0 0C2#7A7F8000000086
(1707758081.842701) can0 0C2#7A7F8000010085
(1707758081.852655) can0 0C2#7A7F8000020084
(1707758081.862740) can0 0C2#7A7F8000030083
(1707758081.872734) can0 0C2#7A7F8000040082
(1707758081.882704) can0 0C2#7A7F8000050081
(1707758081.892698) can0 0C2#7A7F8000060080
(1707758081.902697) can0 0C2#7A7F800007007F
(1707758081.912694) can0 0C2#7A7F800008007E
(1707758081.922691) can0 0C2#7A7F800009007D
(1707758081.932647) can0 0C2#7A7F80000A007C
(1707758081.942703) can0 0C2#7A7F80000B007B
(1707758081.952662) can0 0C2#7A7F80000C007A
(1707758081.962688) can0 0C2#7A7F80000D0079
(1707758081.972661) can0 0C2#7A7F80000E0078
(1707758081.982696) can0 0C2#7A7F80000F0077
(1707758081.992630) can0 0C2#7A7F8000000086
(1707758082.002704) can0 0C2#7A7F8000010085
(1707758082.012700) can0 0C2#7A7F8000020084
(1707758082.022698) can0 0C2#7A7F8000030083
(1707758082.032704) can0 0C2#7A7F8000040082
(1707758082.042706) can0 0C2#7A7F8000050081
(1707758082.052698) can0 0C2#7A7F8000060080
(1707758082.062695) can0 0C2#7A7F800007007F
(1707758082.072695) can0 0C2#7A7F800008007E
(1707758082.082703) can0 0C2#7A7F800009007D
(1707758082.092700) can0 0C2#7A7F80000A007C
(1707758082.102705) can0 0C2#7A7F80000B007B
(1707758082.112705) can0 0C2#7A7F80000C007A
(1707758082.122701) can0 0C2#7A7F80000D0079
(1707758082.132737) can0 0C2#7A7F80000E0078
(1707758082.142697) can0 0C2#7A7F80000F0077
(1707758082.152703) can0 0C2#7A7F8000000086
(1707758082.162701) can0 0C2#7A7F8000010085
(1707758082.172703) can0 0C2#7A7F8000020084
(1707758082.182690) can0 0C2#7A7F8000030083
(1707758082.192703) can0 0C2#7A7F8000040082
(1707758082.202702) can0 0C2#7A7F8000050081
(1707758082.212605) can0 0C2#7A7F8000060080
(1707758082.222693) can0 0C2#7A7F800007007F
(1707758082.232695) can0 0C2#7A7F800008007E
(1707758082.242701) can0 0C2#7A7F800009007D
(1707758082.252703) can0 0C2#7A7F80000A007C
(1707758082.262700) can0 0C2#7A7F80000B007B
(1707758082.272695) can0 0C2#7A7F80000C007A
(1707758082.282623) can0 0C2#7A7F80000D0079
(1707758082.292606) can0 0C2#7A7F80000E0078
(1707758082.302631) can0 0C2#7A7F80000F0077
(1707758082.312735) can0 0C2#7A7F8000000086
(1707758082.322684) can0 0C2#7A7F8000010085
(1707758082.332702) can0 0C2#7A7F8000020084
(1707758082.342695) can0 0C2#7A7F8000030083
(1707758082.352735) can0 0C2#7A7F8000040082
(1707758082.362607) can0 0C2#7A7F8000050081
(1707758082.372599) can0 0C2#7A7F8000060080
(1707758082.382599) can0 0C2#7A7F800007007F
(1707758082.392616) can0 0C2#7A7F800008007E
(1707758082.402657) can0 0C2#7A7F800009007D
(1707758082.412693) can0 0C2#7A7F80000A007C
(1707758082.422731) can0 0C2#7A7F80000B007B
(1707758082.432692) can0 0C2#7A7F80000C007A
(1707758082.442611) can0 0C2#7A7F80000D0079
(1707758082.452701) can0 0C2#7A7F80000E0078
(1707758082.462650) can0 0C2#7A7F80000F0077
(1707758082.472694) can0 0C2#7A7F8000000086
(1707758082.482685) can0 0C2#7A7F8000010085
(1707758082.492692) can0 0C2#7A7F8000020084
(1707758082.502650) can0 0C2#7A7F8000030083
(1707758082.512631) can0 0C2#7A7F8000040082
(1707758082.522695) can0 0C2#7A7F8000050081
(1707758082.532700) can0 0C2#7A7F8000060080
(1707758082.542734) can0 0C2#7A7F800007007F
(1707758082.552695) can0 0C2#7A7F800008007E
(1707758082.562692) can0 0C2#7A7F800009007D
(1707758082.572699) can0 0C2#7A7F80000A007C
(1707758082.582700) can0 0C2#7A7F80000B007B
(1707758082.592732) can0 0C2#7A7F80000C007A
(1707758082.602702) can0 0C2#7A7F80000D0079
(1707758082.612699) can0 0C2#7A7F80000E0078
(1707758082.622693) can0 0C2#7A7F80000F0077
(1707758082.632740) can0 0C2#7A7F8000000086
(1707758082.642700) can0 0C2#7A7F8000010085
(1707758082.652698) can0 0C2#7A7F8000020084
(1707758082.662701) can0 0C2#7A7F8000030083
(1707758082.672690) can0 0C2#7A7F8000040082
(1707758082.682734) can0 0C2#7A7F8000050081
(1707758082.692694) can0 0C2#7A7F8000060080
(1707758082.702643) can0 0C2#7A7F800007007F
(1707758082.712614) can0 0C2#7A7F800008007E
(1707758082.722728) can0 0C2#7A7F800009007D
(1707758082.732735) can0 0C2#7A7F80000A007C
(1707758082.742699) can0 0C2#7A7F80000B007B
(1707758082.752692) can0 0C2#7A7F80000C007A
(1707758082.762740) can0 0C2#7A7F80000D0079
(1707758082.772690) can0 0C2#7A7F80000E0078
(1707758082.782594) can0 0C2#7A7F80000F0077
(1707758082.792608) can0 0C2#7A7F8000000086
(1707758082.802627) can0 0C2#7A7F8000010085
(1707758082.812689) can0 0C2#7A7F8000020084
(1707758082.822690) can0 0C2#7A7F8000030083
(1707758082.832692) can0 0C2#7A7F8000040082
(1707758082.842699) can0 0C2#7A7F8000050081
(1707758082.852689) can0 0C2#7A7F8000060080
(1707758082.862732) can0 0C2#7A7F800007007F
(1707758082.872692) can0 0C2#7A7F800008007E
(1707758082.882698) can0 0C2#7A7F800009007D
(1707758082.892689) can0 0C2#7A7F80000A007C
(1707758082.902698) can0 0C2#7A7F80000B007B
(1707758082.912693) can0 0C2#7A7F80000C007A
(1707758082.922697) can0 0C2#7A7F80000D0079
(1707758082.932691) can0 0C2#7A7F80000E0078
(1707758082.942689) can0 0C2#7A7F80000F0077
(1707758082.952694) can0 0C2#7A7F8000000086
(1707758082.962737) can0 0C2#7A7F8000010085
(1707758082.972656) can0 0C2#7A7F8000020084
(1707758082.982697) can0 0C2#7A7F8000030083
(1707758082.992648) can0 0C2#7A7F8000040082
(1707758083.002731) can0 0C2#7A7F8000050081
(1707758083.012736) can0 0C2#7A7F8000060080
(1707758083.022731) can0 0C2#7A7F800007007F
(1707758083.032734) can0 0C2#7A7F800008007E
(1707758083.042699) can0 0C2#7A7F800009007D
(1707758083.052733) can0 0C2#7A7F80000A007C
(1707758083.062687) can0 0C2#7A7F80000B007B
(1707758083.072687) can0 0C2#7A7F80000C007A
(1707758083.082695) can0 0C2#7A7F80000D0079
(1707758083.092689) can0 0C2#7A7F80000E0078
(1707758083.102648) can0 0C2#7A7F80000F0077
(1707758083.112634) can0 0C2#7A7F8000000086
(1707758083.122622) can0 0C2#7A7F8000010085
(1707758083.132625) can0 0C2#7A7F8000020084
(1707758083.142626) can0 0C2#7A7F8000030083
(1707758083.152623) can0 0C2#7A7F8000040082
(1707758083.162625) can0 0C2#7A7F8000050081
(1707758083.172626) can0 0C2#7A7F8000060080
(1707758083.182622) can0 0C2#7A7F800007007F
(1707758083.192621) can0 0C2#7A7F800008007E
(1707758083.202622) can0 0C2#7A7F800009007D
(1707758083.212588) can0 0C2#7A7F80000A007C
(1707758083.222623) can0 0C2#7A7F80000B007B
(1707758083.232622) can0 0C2#7A7F80000C007A
(1707758083.242624) can0 0C2#7A7F80000D0079
(1707758083.252624) can0 0C2#7A7F80000E0078
(1707758083.262622) can0 0C2#7A7F80000F0077
(1707758083.272697) can0 0C2#7A7F8000000086
(1707758083.282690) can0 0C2#7A7F8000010085
(1707758083.292609) can0 0C2#7A7F8000020084
(1707758083.302609) can0 0C2#7A7F8000030083
(1707758083.312688) can0 0C2#7A7F8000040082
(1707758083.322694) can0 0C2#7A7F8000050081
(1707758083.332734) can0 0C2#7A7F8000060080
(1707758083.342659) can0 0C2#7A7F800007007F
(1707758083.352694) can0 0C2#7A7F800008007E
(1707758083.362601) can0 0C2#7A7F800009007D
(1707758083.372633) can0 0C2#7A7F80000A007C
(1707758083.382631) can0 0C2#7A7F80000B007B
(1707758083.392593) can0 0C2#7A7F80000C007A
(1707758083.402602) can0 0C2#7A7F80000D0079
(1707758083.412686) can0 0C2#7A7F80000E0078
(1707758083.422726) can0 0C2#7A7F80000F0077
(1707758083.432689) can0 0C2#7A7F8000000086
(1707758083.442629) can0 0C2#7A7F8000010085
(1707758083.452686) can0 0C2#7A7F8000020084
(1707758083.462688) can0 0C2#7A7F8000030083
(1707758083.472852) can0 0C2#7A7F8000040082
(1707758083.482652) can0 0C2#7A7F8000050081
(1707758083.492692) can0 0C2#7A7F8000060080
(1707758083.502655) can0 0C2#7A7F800007007F
(1707758083.512733) can0 0C2#7A7F800008007E
(1707758083.522641) can0 0C2#7A7F800009007D
(1707758083.532855) can0 0C2#7A7F80000A007C
(1707758083.542693) can0 0C2#7A7F80000B007B
(1707758083.552594) can0 0C2#7A7F80000C007A
(1707758083.562690) can0 0C2#7A7F80000D0079
(1707758083.572818) can0 0C2#7A7F80000E0078
(1707758083.582810) can0 0C2#7A7F80000F0077
(1707758083.592692) can0 0C2#7A7F8000000086
(1707758083.602684) can0 0C2#7A7F8000010085
(1707758083.612685) can0 0C2#7A7F8000020084
(1707758083.622766) can0 0C2#7A7F8000030083
(1707758083.632811) can0 0C2#7A7F8000040082
(1707758083.642810) can0 0C2#7A7F8000050081
(1707758083.652692) can0 0C2#7A7F8000060080
(1707758083.662637) can0 0C2#7A7F800007007F
(1707758083.672820) can0 0C2#7A7F800008007E
(1707758083.682809) can0 0C2#7A7F800009007D
(1707758083.692806) can0 0C2#7A7F80000A007C
(1707758083.702812) can0 0C2#7A7F80000B007B
(1707758083.712596) can0 0C2#7A7F80000C007A
(1707758083.722813) can0 0C2#7A7F80000D0079
(1707758083.732808) can0 0C2#7A7F80000E0078
(1707758083.742758) can0 0C2#7A7F80000F0077
(1707758083.752818) can0 0C2#7A7F8000000086
(1707758083.762689) can0 0C2#7A7F8000010085
(1707758083.772809) can0 0C2#7A7F8000020084
(1707758083.782771) can0 0C2#7A7F8000030083
(1707758083.792729) can0 0C2#7A7F8000040082
(1707758083.802752) can0 0C2#7A7F8000050081
(1707758083.812844) can0 0C2#7A7F8000060080
(1707758083.822775) can0 0C2#7A7F800007007F
(1707758083.832809) can0 0C2#7A7F800008007E
(1707758083.842719) can0 0C2#7A7F800009007D
(1707758083.852696) can0 0C2#7A7F80000A007C
(1707758083.862809) can0 0C2#7A7F80000B007B
(1707758083.872807) can0 0C2#7A7F80000C007A
(1707758083.882851) can0 0C2#7A7F80000D0079
(1707758083.892848) can0 0C2#7A7F80000E0078
(1707758083.902811) can0 0C2#7A7F80000F0077
(1707758083.912807) can0 0C2#7A7F8000000086
(1707758083.922816) can0 0C2#7A7F8000010085
(1707758083.932813) can0 0C2#7A7F8000020084
(1707758083.942816) can0 0C2#7A7F8000030083
(1707758083.952810) can0 0C2#7A7F8000040082
(1707758083.962816) can0 0C2#7A7F8000050081
(1707758083.972848) can0 0C2#7A7F8000060080
(1707758083.982815) can0 0C2#7A7F800007007F
(1707758083.992807) can0 0C2#7A7F800008007E
(1707758084.002818) can0 0C2#7A7F800009007D
(1707758084.012790) can0 0C2#7A7F80000A007C
(1707758084.022812) can0 0C2#7A7F80000B007B
(1707758084.032765) can0 0C2#7A7F80000C007A
(1707758084.042815) can0 0C2#7A7F80000D0079
(1707758084.052806) can0 0C2#7A7F80000E0078
(1707758084.062809) can0 0C2#7A7F80000F0077
(1707758084.072813) can0 0C2#7A7F8000000086
(1707758084.082817) can0 0C2#7A7F8000010085
(1707758084.092813) can0 0C2#7A7F8000020084
(1707758084.102855) can0 0C2#7A7F8000030083
(1707758084.112738) can0 0C2#7A7F8000040082
(1707758084.122808) can0 0C2#7A7F8000050081
(1707758084.132812) can0 0C2#7A7F8000060080
(1707758084.142855) can0 0C2#7A7F800007007F
(1707758084.152856) can0 0C2#7A7F800008007E
(1707758084.162853) can0 0C2#7A7F800009007D
(1707758084.172756) can0 0C2#7A7F80000A007C
(1707758084.182806) can0 0C2#7A7F80000B007B
(1707758084.192802) can0 0C2#7A7F80000C007A
(1707758084.202766) can0 0C2#7A7F80000D0079
(1707758084.212714) can0 0C2#7A7F80000E0078
(1707758084.222808) can0 0C2#7A7F80000F0077
(1707758084.232805) can0 0C2#7A7F8000000086
(1707758084.242813) can0 0C2#7A7F8000010085
(1707758084.252803) can0 0C2#7A7F8000020084
(1707758084.262807) can0 0C2#7A7F8000030083
(1707758084.272806) can0 0C2#7A7F8000040082
(1707758084.282717) can0 0C2#7A7F8000050081
(1707758084.292717) can0 0C2#7A7F8000060080
(1707758084.302744) can0 0C2#7A7F800007007F
(1707758084.312806) can0 0C2#7A7F800008007E
(1707758084.322844) can0 0C2#7A7F800009007D
(1707758084.332806) can0 0C2#7A7F80000A007C
(1707758084.342845) can0 0C2#7A7F80000B007B
(1707758084.352803) can0 0C2#7A7F80000C007A
(1707758084.362728) can0 0C2#7A7F80000D0079
(1707758084.372712) can0 0C2#7A7F80000E0078
(1707758084.382751) can0 0C2#7A7F80000F0077
(1707758084.392750) can0 0C2#7A7F8000000086
(1707758084.402765) can0 0C2#7A7F8000010085
(1707758084.412845) can0 0C2#7A7F8000020084
(1707758084.422846) can0 0C2#7A7F8000030083
(1707758084.432843) can0 0C2#7A7F8000040082
(1707758084.442805) can0 0C2#7A7F8000050081
(1707758084.452763) can0 0C2#7A7F8000060080
(1707758084.462807) can0 0C2#7A7F800007007F
(1707758084.472769) can0 0C2#7A7F800008007E
(1707758084.482845) can0 0C2#7A7F800009007D
(1707758084.492812) can0 0C2#7A7F80000A007C
(1707758084.502757) can0 0C2#7A7F80000B007B
(1707758084.512803) can0 0C2#7A7F80000C007A
(1707758084.522717) can0 0C2#7A7F80000D0079
(1707758084.532806) can0 0C2#7A7F80000E0078
(1707758084.542811) can0 0C2#7A7F80000F0077
(1707758084.552805) can0 0C2#7A7F8000000086
(1707758084.562802) can0 0C2#7A7F8000010085
(1707758084.572813) can0 0C2#7A7F8000020084
(1707758084.582811) can0 0C2#7A7F8000030083
(1707758084.592806) can0 0C2#7A7F8000040082
(1707758084.602814) can0 0C2#7A7F8000050081
(1707758084.612812) can0 0C2#7A7F8000060080
(1707758084.622811) can0 0C2#7A7F800007007F
(1707758084.632811) can0 0C2#7A7F800008007E
(1707758084.642810) can0 0C2#7A7F800009007D
(1707758084.652809) can0 0C2#7A7F80000A007C
(1707758084.662849) can0 0C2#7A7F80000B007B
(1707758084.672799) can0 0C2#7A7F80000C007A
(1707758084.682763) can0 0C2#7A7F80000D0079
(1707758084.692803) can0 0C2#7A7F80000E0078
(1707758084.702808) can0 0C2#7A7F80000F0077
(1707758084.712715) can0 0C2#7A7F8000000086
(1707758084.722802) can0 0C2#7A7F8000010085
(1707758084.732802) can0 0C2#7A7F8000020084
(1707758084.742803) can0 0C2#7A7F8000030083
(1707758084.752803) can0 0C2#7A7F8000040082
(1707758084.762808) can0 0C2#7A7F8000050081
(1707758084.772849) can0 0C2#7A7F8000060080
(1707758084.782753) can0 0C2#7A7F800007007F
(1707758084.792713) can0 0C2#7A7F800008007E
(1707758084.802739) can0 0C2#7A7F800009007D
(1707758084.812803) can0 0C2#7A7F80000A007C
(1707758084.822805) can0 0C2#7A7F80000B007B
(1707758084.832801) can0 0C2#7A7F80000C007A
(1707758084.842843) can0 0C2#7A7F80000D0079
(1707758084.852843) can0 0C2#7A7F80000E0078
(1707758084.862810) can0 0C2#7A7F80000F0077
(1707758084.872803) can0 0C2#7A7F8000000086
(1707758084.882845) can0 0C2#7A7F8000010085
(1707758084.892839) can0 0C2#7A7F8000020084
(1707758084.902809) can0 0C2#7A7F8000030083
(1707758084.912758) can0 0C2#7A7F8000040082
(1707758084.922810) can0 0C2#7A7F8000050081
(1707758084.932760) can0 0C2#7A7F8000060080
(1707758084.942802) can0 0C2#7A7F800007007F
(1707758084.952800) can0 0C2#7A7F800008007E
(1707758084.962804) can0 0C2#7A7F800009007D
(1707758084.972841) can0 0C2#7A7F80000A007C
(1707758084.982806) can0 0C2#7A7F80000B007B
(1707758084.992757) can0 0C2#7A7F80000C007A
(1707758085.002809) can0 0C2#7A7F80000D0079
(1707758085.012765) can0 0C2#7A7F80000E0078
(1707758085.022808) can0 0C2#7A7F80000F0077
(1707758085.032720) can0 0C2#7A7F8000000086
(1707758085.042801) can0 0C2#7A7F8000010085
(1707758085.052803) can0 0C2#7A7F8000020084
(1707758085.062801) can0 0C2#7A7F8000030083
(1707758085.072756) can0 0C2#7A7F8000040082
(1707758085.082848) can0 0C2#7A7F8000050081
(1707758085.092798) can0 0C2#7A7F8000060080
(1707758085.102804) can0 0C2#7A7F800007007F
(1707758085.112808) can0 0C2#7A7F800008007E
(1707758085.122803) can0 0C2#7A7F800009007D
(1707758085.132805) can0 0C2#7A7F80000A007C
(1707758085.142804) can0 0C2#7A7F80000B007B
(1707758085.152743) can0 0C2#7A7F80000C007A
(1707758085.162810) can0 0C2#7A7F80000D0079
(1707758085.172808) can0 0C2#7A7F80000E0078
(1707758085.182807) can0 0C2#7A7F80000F0077
(1707758085.192843) can0 0C2#7A7F8000000086
(1707758085.202805) can0 0C2#7A7F8000010085
(1707758085.212715) can0 0C2#7A7F8000020084
(1707758085.222798) can0 0C2#7A7F8000030083
(1707758085.232760) can0 0C2#7A7F8000040082
(1707758085.242806) can0 0C2#7A7F8000050081
(1707758085.252807) can0 0C2#7A7F8000060080
(1707758085.262805) can0 0C2#7A7F800007007F
(1707758085.272796) can0 0C2#7A7F800008007E
(1707758085.282765) can0 0C2#7A7F800009007D
(1707758085.292757) can0 0C2#7A7F80000A007C
(1707758085.302736) can0 0C2#7A7F80000B007B
(1707758085.312799) can0 0C2#7A7F80000C007A
(1707758085.322798) can0 0C2#7A7F80000D0079
(1707758085.332804) can0 0C2#7A7F80000E0078
(1707758085.342761) can0 0C2#7A7F80000F0077
(1707758085.352799) can0 0C2#7A7F8000000086
(1707758085.362786) can0 0C2#7A7F8000010085
(1707758085.372758) can0 0C2#7A7F8000020084
(1707758085.382748) can0 0C2#7A7F8000030083
(1707758085.392756) can0 0C2#7A7F8000040082
(1707758085.402741) can0 0C2#7A7F8000050081
(1707758085.412736) can0 0C2#7A7F8000060080
(1707758085.422733) can0 0C2#7A7F800007007F
(1707758085.432736) can0 0C2#7A7F800008007E
(1707758085.442733) can0 0C2#7A7F800009007D
(1707758085.452792) can0 0C2#7A7F80000A007C
(1707758085.462733) can0 0C2#7A7F80000B007B
(1707758085.472703) can0 0C2#7A7F80000C007A
(1707758085.482732) can0 0C2#7A7F80000D0079
(1707758085.492735) can0 0C2#7A7F80000E0078
(1707758085.502733) can0 0C2#7A7F80000F0077
(1707758085.512737) can0 0C2#7A7F8000000086
(1707758085.522732) can0 0C2#7A7F8000010085
(1707758085.532735) can0 0C2#7A7F8000020084
(1707758085.542739) can0 0C2#7A7F8000030083
(1707758085.552732) can0 0C2#7A7F8000040082
(1707758085.562796) can0 0C2#7A7F8000050081
(1707758085.572803) can0 0C2#7A7F8000060080
(1707758085.582844) can0 0C2#7A7F800007007F
(1707758085.592805) can0 0C2#7A7F800008007E
(1707758085.602841) can0 0C2#7A7F800009007D
(1707758085.612801) can0 0C2#7A7F80000A007C
(1707758085.622751) can0 0C2#7A7F80000B007B
(1707758085.632798) can0 0C2#7A7F80000C007A
(1707758085.642803) can0 0C2#7A7F80000D0079
(1707758085.652805) can0 0C2#7A7F80000E0078
(1707758085.662837) can0 0C2#7A7F80000F0077
(1707758085.672795) can0 0C2#7A7F8000000086
(1707758085.682743) can0 0C2#7A7F8000010085
(1707758085.692797) can0 0C2#7A7F8000020084
(1707758085.702796) can0 0C2#7A7F8000030083
(1707758085.712752) can0 0C2#7A7F8000040082
(1707758085.722794) can0 0C2#7A7F8000050081
(1707758085.732801) can0 0C2#7A7F8000060080
(1707758085.742804) can0 0C2#7A7F800007007F
(1707758085.752835) can0 0C2#7A7F800008007E
(1707758085.762800) can0 0C2#7A7F800009007D
(1707758085.772803) can0 0C2#7A7F80000A007C
(1707758085.782749) can0 0C2#7A7F80000B007B
(1707758085.792749) can0 0C2#7A7F80000C007A
(1707758085.802793) can0 0C2#7A7F80000D0079
(1707758085.812709) can0 0C2#7A7F80000E0078
(1707758085.822805) can0 0C2#7A7F80000F0077
(1707758085.832745) can0 0C2#7A7F8000000086
(1707758085.842746) can0 0C2#7A7F8000010085
(1707758085.852731) can0 0C2#7A7F8000020084
(1707758085.862836) can0 0C2#7A7F8000030083
(1707758085.872836) can0 0C2#7A7F8000040082
(1707758085.882727) can0 0C2#7A7F8000050081
(1707758085.892789) can0 0C2#7A7F8000060080
(1707758085.902842) can0 0C2#7A7F800007007F
(1707758085.912795) can0 0C2#7A7F800008007E
(1707758085.922800) can0 0C2#7A7F800009007D
(1707758085.932795) can0 0C2#7A7F80000A007C
(1707758085.942800) can0 0C2#7A7F80000B007B
(1707758085.952835) can0 0C2#7A7F80000C007A
(1707758085.962796) can0 0C2#7A7F80000D0079
(1707758085.972835) can0 0C2#7A7F80000E0078
(1707758085.982836) can0 0C2#7A7F80000F0077
(1707758085.992750) can0 0C2#7A7F8000000086
(1707758086.002832) can0 0C2#7A7F8000010085
(1707758086.012795) can0 0C2#7A7F8000020084
(1707758086.022841) can0 0C2#7A7F8000030083
(1707758086.032842) can0 0C2#7A7F8000040082
(1707758086.042801) can0 0C2#7A7F8000050081
(1707758086.052794) can0 0C2#7A7F8000060080
(1707758086.062794) can0 0C2#7A7F800007007F
(1707758086.072841) can0 0C2#7A7F800008007E
(1707758086.082795) can0 0C2#7A7F800009007D
(1707758086.092840) can0 0C2#7A7F80000A007C
(1707758086.102801) can0 0C2#7A7F80000B007B
(1707758086.112797) can0 0C2#7A7F80000C007A
(1707758086.122802) can0 0C2#7A7F80000D0079
(1707758086.132790) can0 0C2#7A7F80000E0078
(1707758086.142803) can0 0C2#7A7F80000F0077
(1707758086.152802) can0 0C2#7A7F8000000086
(1707758086.162793) can0 0C2#7A7F8000010085
(1707758086.172791) can0 0C2#7A7F8000020084
(1707758086.182797) can0 0C2#7A7F8000030083
(1707758086.192801) can0 0C2#7A7F8000040082
(1707758086.202799) can0 0C2#7A7F8000050081
(1707758086.212726) can0 0C2#7A7F8000060080
