(1702827525.015298) can0 0C2#67A980000D0062
(1702827525.025346) can0 0C2#67A980000E0061
(1702827525.035304) can0 0C2#67A980000F0060
(1702827525.045351) can0 0C2#67A9800000006F
(1702827525.055370) can0 0C2#67A9800001006E
(1702827525.065363) can0 0C2#67A9800002006D
(1702827525.075343) can0 0C2#67A9800003006C
(1702827525.085350) can0 0C2#67A9800004006B
(1702827525.095341) can0 0C2#67A9800005006A
(1702827525.105348) can0 0C2#67A98000060069
(1702827525.115326) can0 0C2#67A98000070068
(1702827525.125404) can0 0C2#67A98000080067
(1702827525.135332) can0 0C2#67A98000090066
(1702827525.145309) can0 0C2#67A980000A0065
(1702827525.155364) can0 0C2#67A980000B0064
(1702827525.165328) can0 0C2#67A980000C0063
(1702827525.175378) can0 0C2#67A980000D0062
(1702827525.185368) can0 0C2#67A980000E0061
(1702827525.195332) can0 0C2#67A980000F0060
(1702827525.205367) can0 0C2#67A9800000006F
(1702827525.215301) can0 0C2#67A9800001006E
(1702827525.225319) can0 0C2#67A9800002006D
(1702827525.235349) can0 0C2#67A9800003006C
(1702827525.245353) can0 0C2#67A9800004006B
(1702827525.255352) can0 0C2#67A9800005006A
(1702827525.265356) can0 0C2#67A98000060069
(1702827525.275327) can0 0C2#67A98000070068
(1702827525.285357) can0 0C2#67A98000080067
(1702827525.295367) can0 0C2#67A98000090066
(1702827525.305353) can0 0C2#67A980000A0065
(1702827525.315336) can0 0C2#67A980000B0064
(1702827525.325352) can0 0C2#67A980000C0063
(1702827525.335394) can0 0C2#67A980000D0062
(1702827525.345333) can0 0C2#67A980000E0061
(1702827525.355354) can0 0C2#67A980000F0060
(1702827525.365345) can0 0C2#67A9800000006F
(1702827525.375320) can0 0C2#67A9800001006E
(1702827525.385350) can0 0C2#67A9800002006D
(1702827525.395358) can0 0C2#67A9800003006C
(1702827525.405381) can0 0C2#67A9800004006B
(1702827525.415384) can0 0C2#67A9800005006A
(1702827525.425324) can0 0C2#67A98000060069
(1702827525.435339) can0 0C2#67A98000070068
(1702827525.445366) can0 0C2#67A98000080067
(1702827525.455372) can0 0C2#67A98000090066
(1702827525.465337) can0 0C2#67A980000A0065
(1702827525.475335) can0 0C2#67A980000B0064
(1702827525.485357) can0 0C2#67A980000C0063
(1702827525.495317) can0 0C2#67A980000D0062
(1702827525.505364) can0 0C2#67A980000E0061
(1702827525.515344) can0 0C2#67A980000F0060
(1702827525.525369) can0 0C2#67A9800000006F
(1702827525.535394) can0 0C2#67A9800001006E
(1702827525.545354) can0 0C2#67A9800002006D
(1702827525.555382) can0 0C2#67A9800003006C
(1702827525.565406) can0 0C2#67A9800004006B
(1702827525.575375) can0 0C2#67A9800005006A
(1702827525.585383) can0 0C2#67A98000060069
(1702827525.595320) can0 0C2#67A98000070068
(1702827525.605317) can0 0C2#67C88640080002
(1702827525.615351) can0 0C2#67DF8DE0090043
(1702827525.625317) can0 0C2#67F285600A00B7
(1702827525.635377) can0 0C2#680C8A200B00D6
(1702827525.645325) can0 0C2#68268A600C007B
(1702827525.655369) can0 0C2#68428AE00D00DE
(1702827525.665369) can0 0C2#685E8A800E0021
(1702827525.675336) can0 0C2#687A8AC00F00C4
(1702827525.685401) can0 0C2#68948AC00000B9
(1702827525.695344) can0 0C2#68B08AC001009C
(1702827525.705324) can0 0C2#68CC8B0002003E
(1702827525.715318) can0 0C2#68E78A600300C3
(1702827525.725309) can0 0C2#69028AA0040066
(1702827525.735392) can0 0C2#691D8B000500E9
(1702827525.745322) can0 0C2#693A8AE00600EC
(1702827525.755363) can0 0C2#69588B4007006C
(1702827525.765308) can0 0C2#69738AE00800B1
(1702827525.775313) can0 0C2#698E8B20090054
(1702827525.785386) can0 0C2#69AC8B600A00F5
(1702827525.795340) can0 0C2#69C68A600B00DB
(1702827525.805317) can0 0C2#69E28AA00C007E
(1702827525.815334) can0 0C2#69FC8AA00D0063
(1702827525.825374) can0 0C2#6A178A400E00A6
(1702827525.835376) can0 0C2#6A338AA00F0029
(1702827525.845354) can0 0C2#6A4E8A8000003D
(1702827525.855390) can0 0C2#6A698AA0010001
(1702827525.865340) can0 0C2#6A868B40020042
(1702827525.875337) can0 0C2#6AA28AE0030086
(1702827525.885395) can0 0C2#6ABF8B00040047
(1702827525.895373) can0 0C2#6ADA8B2005000B
(1702827525.905378) can0 0C2#6AF68AE006002F
(1702827525.915329) can0 0C2#6B128B000700F0
(1702827525.925336) can0 0C2#6B2D8A60080075
(1702827525.935360) can0 0C2#6B488AC00900F9
(1702827525.945348) can0 0C2#6B648B200A007B
(1702827525.955376) can0 0C2#6B808B000B007E
(1702827525.965329) can0 0C2#6B9D8AE00C0081
(1702827525.975388) can0 0C2#6BB88AE00D0065
(1702827525.985368) can0 0C2#6BD38AA00E0089
(1702827525.995376) can0 0C2#6BEF8B000F000B
(1702827526.005388) can0 0C2#6C098A200000E0
(1702827526.015341) can0 0C2#6C248A60010084
(1702827526.025475) can0 0C2#6C3E8A60020069
(1702827526.035353) can0 0C2#6C598A6003004D
(1702827526.045357) can0 0C2#6C758AA00400F0
(1702827526.055390) can0 0C2#6C908A60050014
(1702827526.065361) can0 0C2#6CAA8A800600D9
(1702827526.075325) can0 0C2#6CC68B0007003B
(1702827526.085375) can0 0C2#6CE18A800800A0
(1702827526.095338) can0 0C2#6CFD8AA0090063
(1702827526.105384) can0 0C2#6D188AC00A0026
(1702827526.115385) can0 0C2#6D338AC00B000A
(1702827526.125380) can0 0C2#6D508B200C008B
(1702827526.135347) can0 0C2#6D6C8AC00D00CF
(1702827526.145333) can0 0C2#6D878AC00E00B3
(1702827526.155404) can0 0C2#6DA38B400F0015
(1702827526.165442) can0 0C2#6DC08AE0000068
(1702827526.175341) can0 0C2#6DDC8AE001004B
(1702827526.185387) can0 0C2#6DF78A8002008F
(1702827526.195333) can0 0C2#6E118AA0030053
(1702827526.205364) can0 0C2#6E2D8AE00400F6
(1702827526.215332) can0 0C2#6E488A8005003A
(1702827526.225453) can0 0C2#6E648A8006001D
(1702827526.235508) can0 0C2#6E7E8AC00700C2
(1702827526.245319) can0 0C2#6E9A8AE0080085
(1702827526.255341) can0 0C2#6EB68AC0090088
(1702827526.265414) can0 0C2#6ED28AA00A008B
(1702827526.275317) can0 0C2#6EEC8A800B0090
(1702827526.285411) can0 0C2#6F088B000C00F1
(1702827526.295348) can0 0C2#6F238A600D0076
(1702827526.305511) can0 0C2#6F3F8AC00E00F9
(1702827526.315352) can0 0C2#6F5A8AC00F00DD
(1702827526.325503) can0 0C2#6F758B00000090
(1702827526.335524) can0 0C2#6F928B00010072
(1702827526.345477) can0 0C2#6FAE8AA00200B6
(1702827526.355510) can0 0C2#6FC98AC003007A
(1702827526.365480) can0 0C2#6FE38AC004005F
(1702827526.375444) can0 0C2#6FFF8A80050082
(1702827526.385540) can0 0C2#701A8A80060065
(1702827526.395487) can0 0C2#70358A60070069
(1702827526.405483) can0 0C2#704F8A8008002E
(1702827526.415455) can0 0C2#706B8B00090090
(1702827526.425508) can0 0C2#70878A800A00F4
(1702827526.435518) can0 0C2#70A38AC00B0097
(1702827526.445484) can0 0C2#70BD8AA00C009C
(1702827526.455516) can0 0C2#70D98AE00D003F
(1702827526.465489) can0 0C2#70F58AE00E0022
(1702827526.475443) can0 0C2#71108A600F0085
(1702827526.485524) can0 0C2#712A8A6000007A
(1702827526.495523) can0 0C2#71458AE00100DE
(1702827526.505523) can0 0C2#71628AE00200C0
(1702827526.515492) can0 0C2#717F8B20030061
(1702827526.525470) can0 0C2#719B8AE0040085
(1702827526.535484) can0 0C2#71B68B20050028
(1702827526.545475) can0 0C2#71D48B600600C9
(1702827526.555497) can0 0C2#71EF8A8007008E
(1702827526.565471) can0 0C2#720B8AE0080010
(1702827526.575475) can0 0C2#72258AC0090015
(1702827526.585484) can0 0C2#72408AA00A0019
(1702827526.595482) can0 0C2#725D8AE00B00BB
(1702827526.605585) can0 0C2#72788AA00C00DF
(1702827526.615514) can0 0C2#72938AE00D0083
(1702827526.625498) can0 0C2#72B08B600E00E4
(1702827526.635481) can0 0C2#72CC8AE00F0048
(1702827526.645486) can0 0C2#72E98AE000003A
(1702827526.655479) can0 0C2#73048AE001001D
(1702827526.665520) can0 0C2#731E8AA0020042
(1702827526.675507) can0 0C2#733A8AC0030005
(1702827526.685518) can0 0C2#73558A40040069
(1702827526.695469) can0 0C2#73708A8005000D
(1702827526.705561) can0 0C2#738C8B2006004F
(1702827526.715471) can0 0C2#73A78AA00700B4
(1702827526.725473) can0 0C2#73C48AC0080076
(1702827526.735464) can0 0C2#73DF8AC009005A
(1702827526.745476) can0 0C2#73FA8AA00A005E
(1702827526.755566) can0 0C2#74168AE00B0000
(1702827526.765484) can0 0C2#74318A600C0064
(1702827526.775451) can0 0C2#744C8AA00D0008
(1702827526.785468) can0 0C2#74668AA00E00ED
(1702827526.795478) can0 0C2#74818A800F00F1
(1702827526.805561) can0 0C2#749D8AA00000C4
(1702827526.815471) can0 0C2#74B88A800100C8
(1702827526.825447) can0 0C2#74D38A800200AC
(1702827526.835515) can0 0C2#74EE8B0003000F
(1702827526.845478) can0 0C2#750A8A80040072
(1702827526.855508) can0 0C2#75258A80050056
(1702827526.865612) can0 0C2#75408AA006001A
(1702827526.875498) can0 0C2#755B8AA00700FE
(1702827526.885520) can0 0C2#75778AE00800A1
(1702827526.895488) can0 0C2#75928AA00900C5
(1702827526.905507) can0 0C2#75AE8AC00A0088
(1702827526.915558) can0 0C2#75B886E00B0061
(1702827526.925456) can0 0C2#75B880400C0006
(1702827526.935507) can0 0C2#75B880000D0045
(1702827526.945481) can0 0C2#75B880000E0044
(1702827526.955505) can0 0C2#75B880000F0043
(1702827526.965499) can0 0C2#75B88000000052
(1702827526.975508) can0 0C2#75B88000010051
(1702827526.985539) can0 0C2#75B88000020050
(1702827526.995490) can0 0C2#75B8800003004F
(1702827527.005505) can0 0C2#75B8800004004E
(1702827527.015535) can0 0C2#75B8800005004D
(1702827527.025498) can0 0C2#75B8800006004C
(1702827527.035513) can0 0C2#75B8800007004B
(1702827527.045461) can0 0C2#75B8800008004A
(1702827527.055508) can0 0C2#75B88000090049
(1702827527.065514) can0 0C2#75B880000A0048
(1702827527.075499) can0 0C2#75B880000B0047
(1702827527.085513) can0 0C2#75B880000C0046
(1702827527.095462) can0 0C2#75B880000D0045
(1702827527.105509) can0 0C2#75B880000E0044
(1702827527.115570) can0 0C2#75B880000F0043
(1702827527.125513) can0 0C2#75B88000000052
(1702827527.135525) can0 0C2#75B88000010051
(1702827527.145470) can0 0C2#75B88000020050
(1702827527.155532) can0 0C2#75B8800003004F
(1702827527.165477) can0 0C2#75B8800004004E
(1702827527.175479) can0 0C2#75B8800005004D
(1702827527.185475) can0 0C2#75B8800006004C
(1702827527.195530) can0 0C2#75B8800007004B
(1702827527.205525) can0 0C2#75B8800008004A
(1702827527.215483) can0 0C2#75B88000090049
(1702827527.225521) can0 0C2#75B880000A0048
(1702827527.235487) can0 0C2#75B880000B0047
(1702827527.245479) can0 0C2#75B880000C0046
(1702827527.255528) can0 0C2#75B880000D0045
(1702827527.265547) can0 0C2#75B880000E0044
(1702827527.275474) can0 0C2#75B880000F0043
(1702827527.285530) can0 0C2#75B88000000052
(1702827527.295473) can0 0C2#75B88000010051
(1702827527.305570) can0 0C2#75B88000020050
(1702827527.315551) can0 0C2#75B8800003004F
(1702827527.325525) can0 0C2#75B8800004004E
(1702827527.335522) can0 0C2#75B8800005004D
(1702827527.345479) can0 0C2#75B8800006004C
(1702827527.355540) can0 0C2#75B8800007004B
(1702827527.365491) can0 0C2#75B8800008004A
(1702827527.375483) can0 0C2#75B88000090049
(1702827527.385566) can0 0C2#75B880000A0048
(1702827527.395485) can0 0C2#75B880000B0047
(1702827527.405537) can0 0C2#75B880000C0046
(1702827527.415487) can0 0C2#75B880000D0045
(1702827527.425515) can0 0C2#75B880000E0044
(1702827527.435529) can0 0C2#75B880000F0043
(1702827527.445502) can0 0C2#75B88000000052
(1702827527.455529) can0 0C2#75B88000010051
(1702827527.465507) can0 0C2#75B88000020050
(1702827527.475463) can0 0C2#75B8800003004F
(1702827527.485479) can0 0C2#75B8800004004E
(1702827527.495473) can0 0C2#75B8800005004D
(1702827527.505520) can0 0C2#75B8800006004C
(1702827527.515503) can0 0C2#75B8800007004B
(1702827527.525478) can0 0C2#75B8800008004A
(1702827527.535480) can0 0C2#75B88000090049
(1702827527.545491) can0 0C2#75B880000A0048
(1702827527.555480) can0 0C2#75B880000B0047
(1702827527.565521) can0 0C2#75B880000C0046
(1702827527.575478) can0 0C2#75B880000D0045
(1702827527.585490) can0 0C2#75B880000E0044
(1702827527.595472) can0 0C2#75B880000F0043
(1702827527.605699) can0 0C2#75B88000000052
(1702827527.615636) can0 0C2#75B88000010051
(1702827527.625640) can0 0C2#75B88000020050
(1702827527.635620) can0 0C2#75B8800003004F
(1702827527.645614) can0 0C2#75B8800004004E
(1702827527.655705) can0 0C2#75B8800005004D
(1702827527.665655) can0 0C2#75B8800006004C
(1702827527.675639) can0 0C2#75B8800007004B
(1702827527.685663) can0 0C2#75B8800008004A
(1702827527.695598) can0 0C2#75B88000090049
(1702827527.705527) can0 0C2#759275E00A0099
(1702827527.715645) can0 0C2#758679200B0060
(1702827527.725640) can0 0C2#756975600C0040
(1702827527.735577) can0 0C2#754D75600D005B
(1702827527.745626) can0 0C2#753375600E0074
(1702827527.755579) can0 0C2#751775000F00EF
(1702827527.765668) can0 0C2#74FC75600000BA
(1702827527.775637) can0 0C2#74E075800100B5
(1702827527.785654) can0 0C2#74C675800200CE
(1702827527.795596) can0 0C2#74AB7560030008
(1702827527.805704) can0 0C2#748E7520040064
(1702827527.815640) can0 0C2#7473758005001E
(1702827527.825610) can0 0C2#74587580060038
(1702827527.835663) can0 0C2#743E7560070071
(1702827527.845636) can0 0C2#7422756008008C
(1702827527.855706) can0 0C2#740675600900A7
(1702827527.865759) can0 0C2#73EC75600A00C1
(1702827527.875653) can0 0C2#73D175800B00BB
(1702827527.885709) can0 0C2#73B574E00C0077
(1702827527.895627) can0 0C2#739975600D0011
(1702827527.905674) can0 0C2#737D75800E000C
(1702827527.915641) can0 0C2#736375400F0065
(1702827527.925617) can0 0C2#7349756000006E
(1702827527.935686) can0 0C2#732C756001008A
(1702827527.945617) can0 0C2#73117580020084
(1702827527.955701) can0 0C2#72F6758003009F
(1702827527.965683) can0 0C2#72DA74C004007B
(1702827527.975674) can0 0C2#72BE7520050035
(1702827527.985708) can0 0C2#72A27560060010
(1702827527.995640) can0 0C2#7287752007006A
(1702827528.005707) can0 0C2#726B74E00800C6
(1702827528.015692) can0 0C2#724E75000900C1
(1702827528.025653) can0 0C2#723375800A005B
(1702827528.035706) can0 0C2#721975A00B0054
(1702827528.045624) can0 0C2#71FD74E00C0031
(1702827528.055650) can0 0C2#71E175200D000B
(1702827528.065710) can0 0C2#71C475600E00E7
(1702827528.075654) can0 0C2#71A975200F0041
(1702827528.085669) can0 0C2#718E750000008B
(1702827528.095609) can0 0C2#717174A0010008
(1702827528.105652) can0 0C2#71557540020082
(1702827528.115683) can0 0C2#7139756003007D
(1702827528.125622) can0 0C2#711E75000400F7
(1702827528.135653) can0 0C2#710375200500F1
(1702827528.145656) can0 0C2#70E775600600CD
(1702827528.155653) can0 0C2#70CB75800700C8
(1702827528.165648) can0 0C2#70B17560080001
(1702827528.175621) can0 0C2#7095750009007C
(1702827528.185656) can0 0C2#707A75600A0036
(1702827528.195685) can0 0C2#705E75800B0031
(1702827528.205653) can0 0C2#704375600C006B
(1702827528.215684) can0 0C2#702975800D0064
(1702827528.225652) can0 0C2#700D75400E00BF
(1702827528.235655) can0 0C2#6FF275800F009A
(1702827528.245634) can0 0C2#6FD775A00000A4
(1702827528.255654) can0 0C2#6FBC752001003E
(1702827528.265658) can0 0C2#6FA07520020059
(1702827528.275662) can0 0C2#6F837540030055
(1702827528.285656) can0 0C2#6F68756004004F
(1702827528.295615) can0 0C2#6F4D7540050089
(1702827528.305671) can0 0C2#6F3175000600E4
(1702827528.315662) can0 0C2#6F16756007009E
(1702827528.325655) can0 0C2#6EFA75400800DA
(1702827528.335670) can0 0C2#6EDF7520090014
(1702827528.345607) can0 0C2#6EC475800A00CE
(1702827528.355679) can0 0C2#6EA775000B006A
(1702827528.365705) can0 0C2#6E8C75600C0024
(1702827528.375693) can0 0C2#6E7175800D001E
(1702827528.385641) can0 0C2#6E5575000E00B9
(1702827528.395679) can0 0C2#6E3975400F0094
(1702827528.405631) can0 0C2#6E1D75400000BF
(1702827528.415633) can0 0C2#6E0275400100D9
(1702827528.425655) can0 0C2#6DE975C0020072
(1702827528.435680) can0 0C2#6DCC754003000E
(1702827528.445636) can0 0C2#6DB175800400E8
(1702827528.455679) can0 0C2#6D967540050042
(1702827528.465664) can0 0C2#6D7A74E00600BE
(1702827528.475655) can0 0C2#6D5E7520070098
(1702827528.485676) can0 0C2#6D4275000800D3
(1702827528.495651) can0 0C2#6D2575200900CF
(1702827528.505675) can0 0C2#6D0B75600A00A8
(1702827528.515630) can0 0C2#6CEF74E00B0045
(1702827528.525662) can0 0C2#6CD375400C00FF
(1702827528.535722) can0 0C2#6CB775600D00FA
(1702827528.545631) can0 0C2#6C9D75800E00F3
(1702827528.555672) can0 0C2#6C8275800F000D
(1702827528.565692) can0 0C2#6C667540000078
(1702827528.575662) can0 0C2#6C4C75C0010011
(1702827528.585646) can0 0C2#6C3275A002004A
(1702827528.595643) can0 0C2#6C177580030084
(1702827528.605612) can0 0C2#6BFC75A004007F
(1702827528.615635) can0 0C2#6BE075600500DA
(1702827528.625619) can0 0C2#6BC675800600D3
(1702827528.635676) can0 0C2#6BAC756007000C
(1702827528.645657) can0 0C2#6B8E74C00800CA
(1702827528.655675) can0 0C2#6B737560090043
(1702827528.665645) can0 0C2#6B5775600A005E
(1702827528.675626) can0 0C2#6B3C75200B00B8
(1702827528.685675) can0 0C2#6B2175600C0092
(1702827528.695680) can0 0C2#6B0475200D00EE
(1702827528.705687) can0 0C2#6AE875000E002A
(1702827528.715683) can0 0C2#6ACE75600F00E3
(1702827528.725670) can0 0C2#6AB074A00000D1
(1702827528.735681) can0 0C2#6A94750001008B
(1702827528.745634) can0 0C2#6A7775000200A7
(1702827528.755634) can0 0C2#6A5B74E00300E3
(1702827528.765666) can0 0C2#6A4075000400DC
(1702827528.775646) can0 0C2#6A2375000500F8
(1702827528.785677) can0 0C2#6A077500060013
(1702827528.795673) can0 0C2#69ED75A007008D
(1702827528.805659) can0 0C2#69D375C0080086
(1702827528.815697) can0 0C2#69B875E0090080
(1702827528.825687) can0 0C2#699C75600A001B
(1702827528.835622) can0 0C2#698075000B0096
(1702827528.845644) can0 0C2#696575200C0090
(1702827528.855613) can0 0C2#694874C00D000D
(1702827528.865684) can0 0C2#692D75600E0086
(1702827528.875667) can0 0C2#691075400F00C2
(1702827528.885633) can0 0C2#68F574E000004E
(1702827528.895644) can0 0C2#68DA7520010027
(1702827528.905632) can0 0C2#68BD7500020063
(1702827528.915679) can0 0C2#68A1754003003E
(1702827528.925648) can0 0C2#68867580040018
(1702827528.935685) can0 0C2#686A74E00500D4
(1702827528.945666) can0 0C2#684F756006006D
(1702827528.955687) can0 0C2#68337580070068
(1702827528.965647) can0 0C2#681975400800C1
(1702827528.975701) can0 0C2#67FF75C009005B
(1702827528.985727) can0 0C2#67E375600A00D6
(1702827528.995643) can0 0C2#67C875A00B00B0
(1702827529.005662) can0 0C2#67B076200C0046
(1702827529.015686) can0 0C2#67AA7AE00D0087
(1702827529.025670) can0 0C2#67A97FE00E0082
(1702827529.035684) can0 0C2#67AA80200F003F
(1702827529.045728) can0 0C2#67AA800000006E
(1702827529.055671) can0 0C2#67AA800001006D
(1702827529.065706) can0 0C2#67AA800002006C
(1702827529.075633) can0 0C2#67AA800003006B
(1702827529.085728) can0 0C2#67AA800004006A
(1702827529.095620) can0 0C2#67AA8000050069
(1702827529.105640) can0 0C2#67A98000060069
(1702827529.115697) can0 0C2#67AA8000070067
(1702827529.125652) can0 0C2#67AA8000080066
(1702827529.135684) can0 0C2#67AA8000090065
(1702827529.145666) can0 0C2#67A980000A0065
(1702827529.155639) can0 0C2#67AA80000B0063
(1702827529.165672) can0 0C2#67A980000C0063
(1702827529.175676) can0 0C2#67AA80000D0061
(1702827529.185707) can0 0C2#67AA80000E0060
(1702827529.195647) can0 0C2#67AA80000F005F
(1702827529.205618) can0 0C2#67AA800000006E
(1702827529.215692) can0 0C2#67AA800001006D
(1702827529.225651) can0 0C2#67A97FE002008E
(1702827529.235675) can0 0C2#67AA800003006B
(1702827529.245721) can0 0C2#67AA800004006A
(1702827529.255660) can0 0C2#67AA8000050069
(1702827529.265745) can0 0C2#67AA8000060068
(1702827529.275640) can0 0C2#67AA8000070067
(1702827529.285647) can0 0C2#67AA8000080066
(1702827529.295682) can0 0C2#67AA8000090065
(1702827529.305658) can0 0C2#67AA80000A0064
(1702827529.315650) can0 0C2#67AA80000B0063
(1702827529.325653) can0 0C2#67AA80000C0062
(1702827529.335678) can0 0C2#67AA80000D0061
(1702827529.345641) can0 0C2#67AA80000E0060
(1702827529.355671) can0 0C2#67AA80000F005F
(1702827529.365649) can0 0C2#67AA800000006E
(1702827529.375703) can0 0C2#67AA800001006D
(1702827529.385676) can0 0C2#67AA800002006C
(1702827529.395682) can0 0C2#67AA800003006B
(1702827529.405651) can0 0C2#67AA800004006A
(1702827529.415706) can0 0C2#67AA8000050069
(1702827529.425671) can0 0C2#67AA8000060068
(1702827529.435796) can0 0C2#67AA7FE0070088
(1702827529.445722) can0 0C2#67A98000080067
(1702827529.455664) can0 0C2#67AA8000090065
(1702827529.465663) can0 0C2#67AA80000A0064
(1702827529.475628) can0 0C2#67AA80000B0063
(1702827529.485734) can0 0C2#67AA80000C0062
(1702827529.495682) can0 0C2#67AA80000D0061
(1702827529.505668) can0 0C2#67AA80000E0060
(1702827529.515669) can0 0C2#67AA80000F005F
(1702827529.525664) can0 0C2#67AA800000006E
(1702827529.535702) can0 0C2#67AA800001006D
(1702827529.545699) can0 0C2#67A9800002006D
(1702827529.555656) can0 0C2#67AA800003006B
(1702827529.565657) can0 0C2#67AA800004006A
(1702827529.575662) can0 0C2#67AA8000050069
(1702827529.585676) can0 0C2#67AA8000060068
(1702827529.595732) can0 0C2#67AA8000070067
(1702827529.605658) can0 0C2#67AA8000080066
(1702827529.615681) can0 0C2#67AA8000090065
(1702827529.625679) can0 0C2#67AA80000A0064
(1702827529.635681) can0 0C2#67AA80000B0063
(1702827529.645675) can0 0C2#67AA80000C0062
(1702827529.655679) can0 0C2#67AA80000D0061
(1702827529.665701) can0 0C2#67A980000E0061
(1702827529.675710) can0 0C2#67AA80000F005F
(1702827529.685684) can0 0C2#67A9800000006F
(1702827529.695662) can0 0C2#67AA800001006D
(1702827529.705706) can0 0C2#67AA800002006C
(1702827529.715723) can0 0C2#67AA800003006B
(1702827529.725695) can0 0C2#67AA800004006A
(1702827529.735652) can0 0C2#67AA8000050069
(1702827529.745669) can0 0C2#67AA8000060068
(1702827529.755651) can0 0C2#67AA8000070067
(1702827529.765715) can0 0C2#67AA8000080066
(1702827529.775651) can0 0C2#67AA8000090065
(1702827529.785684) can0 0C2#67A980000A0065
(1702827529.795674) can0 0C2#67B380E00B007A
(1702827529.805661) can0 0C2#67DB8EE00C0043
(1702827529.815684) can0 0C2#67E786400D00DE
(1702827529.825637) can0 0C2#680088E00E0021
(1702827529.835683) can0 0C2#681B8A600F0083
(1702827529.845730) can0 0C2#68378A80000056
(1702827529.855643) can0 0C2#68528A8001003A
(1702827529.865685) can0 0C2#686D8AE00200BE
(1702827529.875649) can0 0C2#688A8B2003005F
(1702827529.885687) can0 0C2#68A58A60040004
(1702827529.895701) can0 0C2#68C18AE0050067
(1702827529.905676) can0 0C2#68DB8AC006006C
(1702827529.915695) can0 0C2#68F78AA007006F
(1702827529.925691) can0 0C2#69138AE0080011
(1702827529.935649) can0 0C2#692E8A80090055
(1702827529.945680) can0 0C2#694A8B200A0097
(1702827529.955644) can0 0C2#69678B800B0019
(1702827529.965685) can0 0C2#69848B000C007B
(1702827529.975663) can0 0C2#69A18B000D005D
(1702827529.985688) can0 0C2#69BB8AC00E0083
(1702827529.995734) can0 0C2#69D68AA00F0087
(1702827530.005656) can0 0C2#69F28AE000003A
(1702827530.015698) can0 0C2#6A0C8A400100BE
(1702827530.025679) can0 0C2#6A288A60020081
(1702827530.035696) can0 0C2#6A428AE00300E6
(1702827530.045713) can0 0C2#6A5E8A80040029
(1702827530.055654) can0 0C2#6A7B8B0005008A
(1702827530.065706) can0 0C2#6A968AE006008F
(1702827530.075664) can0 0C2#6AB28B00070051
(1702827530.085718) can0 0C2#6ACF8B800800B3
(1702827530.095694) can0 0C2#6AEB8AA0090077
(1702827530.105705) can0 0C2#6B078AE00A0019
(1702827530.115718) can0 0C2#6B218AA00B003E
(1702827530.125676) can0 0C2#6B3C8AA00C0022
(1702827530.135654) can0 0C2#6B598B000D00A3
(1702827530.145686) can0 0C2#6B758AE00E00A7
(1702827530.155636) can0 0C2#6B908AC00F00AB
(1702827530.165662) can0 0C2#6BAC8B4000001D
(1702827530.175696) can0 0C2#6BC98AE0010060
(1702827530.185730) can0 0C2#6BE48A800200A4
(1702827530.195680) can0 0C2#6BFE8A80030089
(1702827530.205709) can0 0C2#6C198A6004008C
(1702827530.215823) can0 0C2#6C348AC0050010
(1702827530.225799) can0 0C2#6C4E8A20060095
(1702827530.235662) can0 0C2#6C698A60070039
(1702827530.245664) can0 0C2#6C838AC00800BE
(1702827530.255781) can0 0C2#6C9F8A800900E1
(1702827530.265697) can0 0C2#6CBB8AA00A00A4
(1702827530.275683) can0 0C2#6CD68A800B00A8
(1702827530.285695) can0 0C2#6CF08A800C008D
(1702827530.295705) can0 0C2#6D0C8B200D00CE
(1702827530.305779) can0 0C2#6D288A800E0052
(1702827530.315855) can0 0C2#6D458AE00F00D4
(1702827530.325805) can0 0C2#6D608B000000A7
(1702827530.335826) can0 0C2#6D7B8AE00100AC
(1702827530.345807) can0 0C2#6D998B2002004C
(1702827530.355684) can0 0C2#6DB48AE0030071
(1702827530.365701) can0 0C2#6DD08AA0040094
(1702827530.375685) can0 0C2#6DEB8B00050017
(1702827530.385834) can0 0C2#6E078AC006003A
(1702827530.395852) can0 0C2#6E228A8007005E
(1702827530.405818) can0 0C2#6E3D8A80080042
(1702827530.415814) can0 0C2#6E578AA0090007
(1702827530.425779) can0 0C2#6E738AE00A00AA
(1702827530.435841) can0 0C2#6E8F8AA00B00CD
(1702827530.445880) can0 0C2#6EAA8AA00C00B1
(1702827530.455853) can0 0C2#6EC68AE00D0054
(1702827530.465788) can0 0C2#6EE18AA00E0078
(1702827530.475790) can0 0C2#6EFD8AE00F001B
(1702827530.485880) can0 0C2#6F178A6000008F
(1702827530.495847) can0 0C2#6F338AA0010032
(1702827530.505821) can0 0C2#6F4E8B000200B5
(1702827530.515878) can0 0C2#6F6A8AC00300D9
(1702827530.525774) can0 0C2#6F878AE004009B
(1702827530.535835) can0 0C2#6FA28AE005007F
(1702827530.545786) can0 0C2#6FBD8AE0060063
(1702827530.555766) can0 0C2#6FD98AC0070066
(1702827530.565878) can0 0C2#6FF48A600800AA
(1702827530.575830) can0 0C2#700F8A8009006D
(1702827530.585917) can0 0C2#70298AA00A0032
(1702827530.595790) can0 0C2#70458A600B0055
(1702827530.605790) can0 0C2#70618AA00C00F8
(1702827530.615838) can0 0C2#707B8AA00D00DD
(1702827530.625812) can0 0C2#70968AE00E0081
(1702827530.635845) can0 0C2#70B38B200F0022
(1702827530.645823) can0 0C2#70CF8A600000D6
(1702827530.655771) can0 0C2#70EA8AA001007A
(1702827530.665806) can0 0C2#71048AA002005E
(1702827530.675773) can0 0C2#711F8A80030062
(1702827530.685881) can0 0C2#713B8AA0040025
(1702827530.695870) can0 0C2#71578A80050028
(1702827530.705801) can0 0C2#71728AE00600AC
(1702827530.715837) can0 0C2#718E8B6007000E
(1702827530.725797) can0 0C2#71AB8B00080050
(1702827530.735836) can0 0C2#71C88B00090032
(1702827530.745843) can0 0C2#71E38B000A0016
(1702827530.755778) can0 0C2#71FE8AC00B003B
(1702827530.765837) can0 0C2#721B8B000C00DB
(1702827530.775829) can0 0C2#72358A400D0081
(1702827530.785839) can0 0C2#72518AA00E0004
(1702827530.795825) can0 0C2#726C8AE00F00A8
(1702827530.805789) can0 0C2#72888AE000009B
(1702827530.815837) can0 0C2#72A58B0001005C
(1702827530.825805) can0 0C2#72C18AE0020060
(1702827530.835889) can0 0C2#72DC8AE0030044
(1702827530.845819) can0 0C2#72F98B200400E5
(1702827530.855788) can0 0C2#73148A80050069
(1702827530.865840) can0 0C2#732F8A8006004D
(1702827530.875776) can0 0C2#73498AA0070012
(1702827530.885848) can0 0C2#73658AA00800F5
(1702827530.895813) can0 0C2#73818AE0090098
(1702827530.905826) can0 0C2#739C8A800A00DC
(1702827530.915794) can0 0C2#73B78AC00B0080
(1702827530.925801) can0 0C2#73D38B200C0002
(1702827530.935823) can0 0C2#73EF8AA00D0066
(1702827530.945829) can0 0C2#740B8AA00E0048
(1702827530.955793) can0 0C2#74258AA00F002D
(1702827530.965840) can0 0C2#74408AA0000021
(1702827530.975796) can0 0C2#745C8AC00100E4
(1702827530.985831) can0 0C2#74768A60020029
(1702827530.995891) can0 0C2#74928A800300EC
(1702827531.005783) can0 0C2#74AC8AE0040071
(1702827531.015891) can0 0C2#74C88A800500B4
(1702827531.025861) can0 0C2#74E48AE0060037
(1702827531.035827) can0 0C2#74FF8A8007007B
(1702827531.045845) can0 0C2#75198A6008007F
(1702827531.055799) can0 0C2#75358B000900C1
(1702827531.065844) can0 0C2#75508A600A0046
(1702827531.075785) can0 0C2#756C8AA00B00E9
(1702827531.085834) can0 0C2#75878B000C006C
(1702827531.095840) can0 0C2#75A28AA00D00B1
(1702827531.105797) can0 0C2#75B789E00E005C
(1702827531.115834) can0 0C2#75B881C00F0082
(1702827531.125783) can0 0C2#75B88000000052
(1702827531.135831) can0 0C2#75B88000010051
(1702827531.145815) can0 0C2#75B88000020050
(1702827531.155828) can0 0C2#75B8800003004F
(1702827531.165805) can0 0C2#75B8800004004E
(1702827531.175821) can0 0C2#75B8800005004D
(1702827531.185835) can0 0C2#75B8800006004C
(1702827531.195895) can0 0C2#75B8800007004B
(1702827531.205833) can0 0C2#75B8800008004A
(1702827531.215843) can0 0C2#75B88000090049
(1702827531.225820) can0 0C2#75B880000A0048
(1702827531.235849) can0 0C2#75B880000B0047
(1702827531.245825) can0 0C2#75B880000C0046
(1702827531.255799) can0 0C2#75B880000D0045
(1702827531.265848) can0 0C2#75B880000E0044
(1702827531.275786) can0 0C2#75B880000F0043
(1702827531.285809) can0 0C2#75B88000000052
(1702827531.295886) can0 0C2#75B88000010051
(1702827531.305833) can0 0C2#75B88000020050
(1702827531.315799) can0 0C2#75B8800003004F
(1702827531.325830) can0 0C2#75B8800004004E
(1702827531.335838) can0 0C2#75B8800005004D
(1702827531.345824) can0 0C2#75B8800006004C
(1702827531.355809) can0 0C2#75B8800007004B
(1702827531.365834) can0 0C2#75B8800008004A
(1702827531.375816) can0 0C2#75B88000090049
(1702827531.385828) can0 0C2#75B880000A0048
(1702827531.395883) can0 0C2#75B880000B0047
(1702827531.405797) can0 0C2#75B880000C0046
(1702827531.415856) can0 0C2#75B880000D0045
(1702827531.425797) can0 0C2#75B880000E0044
(1702827531.435803) can0 0C2#75B880000F0043
(1702827531.445879) can0 0C2#75B88000000052
(1702827531.455838) can0 0C2#75B88000010051
(1702827531.465835) can0 0C2#75B88000020050
(1702827531.475828) can0 0C2#75B8800003004F
(1702827531.485814) can0 0C2#75B8800004004E
(1702827531.495863) can0 0C2#75B8800005004D
(1702827531.505816) can0 0C2#75B8800006004C
(1702827531.515805) can0 0C2#75B8800007004B
(1702827531.525849) can0 0C2#75B8800008004A
(1702827531.535843) can0 0C2#75B88000090049
(1702827531.545798) can0 0C2#75B880000A0048
(1702827531.555802) can0 0C2#75B880000B0047
(1702827531.565800) can0 0C2#75B880000C0046
(1702827531.575835) can0 0C2#75B880000D0045
(1702827531.585797) can0 0C2#75B880000E0044
(1702827531.595857) can0 0C2#75B880000F0043
(1702827531.605801) can0 0C2#75B88000000052
(1702827531.615839) can0 0C2#75B88000010051
(1702827531.625875) can0 0C2#75B88000020050
(1702827531.635830) can0 0C2#75B8800003004F
(1702827531.645843) can0 0C2#75B8800004004E
(1702827531.655804) can0 0C2#75B8800005004D
(1702827531.665838) can0 0C2#75B8800006004C
(1702827531.675864) can0 0C2#75B8800007004B
(1702827531.685835) can0 0C2#75B8800008004A
(1702827531.695843) can0 0C2#75B88000090049
(1702827531.705805) can0 0C2#75B880000A0048
(1702827531.715844) can0 0C2#75B880000B0047
(1702827531.725839) can0 0C2#75B880000C0046
(1702827531.735900) can0 0C2#75B880000D0045
(1702827531.745856) can0 0C2#75B880000E0044
(1702827531.755809) can0 0C2#75B880000F0043
(1702827531.765804) can0 0C2#75B88000000052
(1702827531.775869) can0 0C2#75B88000010051
(1702827531.785833) can0 0C2#75B88000020050
(1702827531.795825) can0 0C2#75B8800003004F
(1702827531.805829) can0 0C2#75B8800004004E
(1702827531.815852) can0 0C2#75B8800005004D
(1702827531.825864) can0 0C2#75B8800006004C
(1702827531.835845) can0 0C2#75B8800007004B
(1702827531.845837) can0 0C2#75B8800008004A
(1702827531.855884) can0 0C2#75B88000090049
(1702827531.865865) can0 0C2#75B880000A0048
(1702827531.875852) can0 0C2#75B880000B0047
(1702827531.885846) can0 0C2#75B880000C0046
(1702827531.895826) can0 0C2#75A27CE00D007F
(1702827531.905876) can0 0C2#758F73800E00FA
(1702827531.915870) can0 0C2#757478A00F00EF
(1702827531.925852) can0 0C2#755A756000005B
(1702827531.935846) can0 0C2#753E75200100B6
(1702827531.945845) can0 0C2#752175400200B2
(1702827531.955872) can0 0C2#7506758003008C
(1702827531.965861) can0 0C2#74EC75800400A6
(1702827531.975818) can0 0C2#74D17520050020
(1702827531.985812) can0 0C2#74B575800600DB
(1702827531.995826) can0 0C2#749A7560070015
(1702827532.005807) can0 0C2#747F754008004F
(1702827532.015861) can0 0C2#74647580090029
(1702827532.025843) can0 0C2#744875400A0084
(1702827532.035863) can0 0C2#742D75A00B003E
(1702827532.045832) can0 0C2#741275A00C0058
(1702827532.055835) can0 0C2#73F775000D0013
(1702827532.065864) can0 0C2#73DC75600E00CD
(1702827532.075899) can0 0C2#73BF75600F00E9
(1702827532.085882) can0 0C2#73A47540000033
(1702827532.095815) can0 0C2#738A756001002C
(1702827532.105827) can0 0C2#736D74E00200C9
(1702827532.115872) can0 0C2#735375A0030021
(1702827532.125852) can0 0C2#733775A004003C
(1702827532.135845) can0 0C2#731D75400500B5
(1702827532.145840) can0 0C2#730275600600AF
(1702827532.155826) can0 0C2#72E5752007000C
(1702827532.165865) can0 0C2#72C97520080027
(1702827532.175816) can0 0C2#72AF7540090020
(1702827532.185841) can0 0C2#729274E00A009D
(1702827532.195841) can0 0C2#727675000B0097
(1702827532.205849) can0 0C2#725975400C0073
(1702827532.215861) can0 0C2#723F75200D00AC
(1702827532.225845) can0 0C2#722475600E0086
(1702827532.235975) can0 0C2#720875400F00C1
(1702827532.245842) can0 0C2#71EC75600000CD
(1702827532.255825) can0 0C2#71D175600100E7
(1702827532.265984) can0 0C2#71B674E0020082
(1702827532.275869) can0 0C2#7199750003007D
(1702827532.285874) can0 0C2#717C74E00400BA
(1702827532.295965) can0 0C2#71607520050094
(1702827532.305946) can0 0C2#7146756006006D
(1702827532.315985) can0 0C2#712974E007000A
(1702827532.326005) can0 0C2#710D75200800E4
(1702827532.335855) can0 0C2#70F275C009005F
(1702827532.345982) can0 0C2#70D875200A0018
(1702827532.355846) can0 0C2#70BC75600B00F3
(1702827532.365945) can0 0C2#70A075400C002E
(1702827532.375983) can0 0C2#708575600D0028
(1702827532.385981) can0 0C2#706A75800E0022
(1702827532.395989) can0 0C2#704F75200F009C
(1702827532.406021) can0 0C2#703375400000A7
(1702827532.415963) can0 0C2#701875C0010041
(1702827532.425933) can0 0C2#6FFE758002009B
(1702827532.435981) can0 0C2#6FE375600300D5
(1702827532.445996) can0 0C2#6FC77540040010
(1702827532.455966) can0 0C2#6FAB754005002B
(1702827532.465982) can0 0C2#6F907560060025
(1702827532.475931) can0 0C2#6F7574E00700C0
(1702827532.485950) can0 0C2#6F58752008009B
(1702827532.495973) can0 0C2#6F3C7540090096
(1702827532.505998) can0 0C2#6F2175600A0090
(1702827532.515993) can0 0C2#6F0675200B00EA
(1702827532.525971) can0 0C2#6EEA75000C0026
(1702827532.535947) can0 0C2#6ECF75A00D00A0
(1702827532.545974) can0 0C2#6EB375600E00FB
(1702827532.555973) can0 0C2#6E9875000F0075
(1702827532.565995) can0 0C2#6E7D756000003F
(1702827532.575972) can0 0C2#6E6075000100BB
(1702827532.585974) can0 0C2#6E457580020055
(1702827532.595935) can0 0C2#6E2A75200300CF
(1702827532.605936) can0 0C2#6E0E750004000A
(1702827532.615942) can0 0C2#6DF375800500A5
(1702827532.625939) can0 0C2#6DD875E006005F
(1702827532.635998) can0 0C2#6DBD7540070019
(1702827532.645947) can0 0C2#6DA27560080013
(1702827532.655965) can0 0C2#6D8574E00900B0
(1702827532.665943) can0 0C2#6D6A75400A0069
(1702827532.675941) can0 0C2#6D4D75200B00A5
(1702827532.685931) can0 0C2#6D3275000C00DF
(1702827532.695970) can0 0C2#6D1675000D00FA
(1702827532.705960) can0 0C2#6CFA75400E00D6
(1702827532.715928) can0 0C2#6CDE75400F00F1
(1702827532.725961) can0 0C2#6CC3754000001B
(1702827532.735976) can0 0C2#6CA87520010055
(1702827532.745959) can0 0C2#6C8D758002000F
(1702827532.755987) can0 0C2#6C71758003002A
(1702827532.765932) can0 0C2#6C577580040043
(1702827532.775996) can0 0C2#6C3D75A005003C
(1702827532.785987) can0 0C2#6C227580060076
(1702827532.795991) can0 0C2#6C0775C0070050
(1702827532.805994) can0 0C2#6BED75A008008A
(1702827532.816010) can0 0C2#6BD17500090045
(1702827532.826007) can0 0C2#6BB675800A00DF
(1702827532.836010) can0 0C2#6B9975600B001B
(1702827532.846006) can0 0C2#6B7E75400C0055
(1702827532.856019) can0 0C2#6B6375400D006F
(1702827532.865993) can0 0C2#6B4674C00E000C
(1702827532.876009) can0 0C2#6B2C75A00F0044
(1702827532.886003) can0 0C2#6B1075600000AF
(1702827532.896041) can0 0C2#6AF474E001004C
(1702827532.905964) can0 0C2#6AD97520020025
(1702827532.915982) can0 0C2#6ABC7520030041
(1702827532.926042) can0 0C2#6A9F74E004009E
(1702827532.935961) can0 0C2#6A847520050077
(1702827532.945983) can0 0C2#6A6774A0060014
(1702827532.955967) can0 0C2#6A4B75000700CE
(1702827532.965943) can0 0C2#6A2F7560080089
(1702827532.976019) can0 0C2#6A1374C0090045
(1702827532.985968) can0 0C2#69F875800A009F
(1702827532.996035) can0 0C2#69DD75A00B0099
(1702827533.006008) can0 0C2#69C375E00C0072
(1702827533.015974) can0 0C2#69A975800D00EB
(1702827533.025963) can0 0C2#698D75000E0086
(1702827533.036007) can0 0C2#697075000F00A2
(1702827533.046009) can0 0C2#695475200000AD
(1702827533.056044) can0 0C2#693875400100A8
(1702827533.066014) can0 0C2#691E75400200C1
(1702827533.075986) can0 0C2#690074C003005F
(1702827533.086017) can0 0C2#68E4750004003A
(1702827533.095960) can0 0C2#68C875600500F5
(1702827533.105960) can0 0C2#68AD750006006F
(1702827533.116023) can0 0C2#68927560070029
(1702827533.126039) can0 0C2#68757520080085
(1702827533.135975) can0 0C2#685A752009009F
(1702827533.146014) can0 0C2#683F75800A0059
(1702827533.155999) can0 0C2#682475200B00D3
(1702827533.166012) can0 0C2#680975A00C006D
(1702827533.176038) can0 0C2#67EE75A00D0088
(1702827533.185981) can0 0C2#67D475800E00C1
(1702827533.196048) can0 0C2#67BA75A00F00BA
(1702827533.205962) can0 0C2#67A977E0000098
(1702827533.216018) can0 0C2#67A97EA00100D0
(1702827533.226018) can0 0C2#67A9800002006D
(1702827533.235962) can0 0C2#67A9800003006C
(1702827533.246057) can0 0C2#67A9800004006B
(1702827533.256001) can0 0C2#67A9800005006A
(1702827533.265970) can0 0C2#67A98000060069
(1702827533.276012) can0 0C2#67A98000070068
(1702827533.286018) can0 0C2#67A98000080067
(1702827533.296010) can0 0C2#67A98000090066
(1702827533.306018) can0 0C2#67A980000A0065
(1702827533.316003) can0 0C2#67A980000B0064
(1702827533.325997) can0 0C2#67A980000C0063
(1702827533.336051) can0 0C2#67A980000D0062
(1702827533.346021) can0 0C2#67A980000E0061
(1702827533.356017) can0 0C2#67A980000F0060
(1702827533.366022) can0 0C2#67A9800000006F
(1702827533.376005) can0 0C2#67A9800001006E
(1702827533.386024) can0 0C2#67A9800002006D
(1702827533.396006) can0 0C2#67A9800003006C
(1702827533.405972) can0 0C2#67A9800004006B
(1702827533.416001) can0 0C2#67A9800005006A
(1702827533.426013) can0 0C2#67A98000060069
(1702827533.436132) can0 0C2#67A98000070068
(1702827533.445971) can0 0C2#67A98000080067
(1702827533.456022) can0 0C2#67A98000090066
(1702827533.466016) can0 0C2#67A980000A0065
(1702827533.476024) can0 0C2#67A980000B0064
(1702827533.486022) can0 0C2#67A980000C0063
(1702827533.496020) can0 0C2#67A980000D0062
(1702827533.506025) can0 0C2#67A980000E0061
(1702827533.516021) can0 0C2#67A980000F0060
(1702827533.526024) can0 0C2#67A9800000006F
(1702827533.536001) can0 0C2#67A9800001006E
(1702827533.545968) can0 0C2#67A9800002006D
(1702827533.556016) can0 0C2#67A9800003006C
(1702827533.566019) can0 0C2#67A9800004006B
(1702827533.576000) can0 0C2#67A9800005006A
(1702827533.586023) can0 0C2#67A98000060069
(1702827533.595979) can0 0C2#67A98000070068
(1702827533.605975) can0 0C2#67A98000080067
(1702827533.616034) can0 0C2#67A98000090066
(1702827533.626006) can0 0C2#67A980000A0065
(1702827533.636007) can0 0C2#67A980000B0064
(1702827533.646011) can0 0C2#67A980000C0063
(1702827533.655973) can0 0C2#67A980000D0062
(1702827533.665971) can0 0C2#67A980000E0061
(1702827533.675977) can0 0C2#67A980000F0060
(1702827533.685975) can0 0C2#67A9800000006F
(1702827533.695970) can0 0C2#67A9800001006E
(1702827533.705961) can0 0C2#67A9800002006D
(1702827533.715966) can0 0C2#67A9800003006C
(1702827533.725977) can0 0C2#67A9800004006B
(1702827533.735956) can0 0C2#67A9800005006A
(1702827533.745990) can0 0C2#67A98000060069
(1702827533.755985) can0 0C2#67A98000070068
(1702827533.765985) can0 0C2#67A98000080067
(1702827533.775958) can0 0C2#67A98000090066
(1702827533.785974) can0 0C2#67A980000A0065
(1702827533.795982) can0 0C2#67A980000B0064
(1702827533.805991) can0 0C2#67A980000C0063
(1702827533.815970) can0 0C2#67A980000D0062
(1702827533.825975) can0 0C2#67A980000E0061
(1702827533.835963) can0 0C2#67A980000F0060
(1702827533.846008) can0 0C2#67A9800000006F
(1702827533.856010) can0 0C2#67A9800001006E
(1702827533.865998) can0 0C2#67A9800002006D
(1702827533.876009) can0 0C2#67A9800003006C
(1702827533.886015) can0 0C2#67A9800004006B
(1702827533.895986) can0 0C2#67A9800005006A
(1702827533.906062) can0 0C2#67A98000060069
(1702827533.915950) can0 0C2#67A98000070068
(1702827533.925961) can0 0C2#67A98000080067
(1702827533.935971) can0 0C2#67A98000090066
(1702827533.945976) can0 0C2#67A980000A0065
(1702827533.955992) can0 0C2#67A980000B0064
(1702827533.965962) can0 0C2#67A980000C0063
(1702827533.975953) can0 0C2#67A980000D0062
(1702827533.985989) can0 0C2#67A980000E0061
(1702827533.996036) can0 0C2#67CE89400F00F2
(1702827534.006017) can0 0C2#67E08B600000CD
(1702827534.015970) can0 0C2#67F786A001007A
(1702827534.026042) can0 0C2#68118A200200DA
(1702827534.035974) can0 0C2#682C8A6003007E
(1702827534.046000) can0 0C2#68468AC0040003
(1702827534.055985) can0 0C2#68628AC00500E6
(1702827534.066019) can0 0C2#687F8AE00600A8
(1702827534.075984) can0 0C2#68998AA00700CD
(1702827534.085997) can0 0C2#68B48AE0080071
(1702827534.096026) can0 0C2#68D18B00090032
(1702827534.105987) can0 0C2#68EC8A600A00B7
(1702827534.116006) can0 0C2#69088AC00B0039
(1702827534.126019) can0 0C2#69228AC00C001E
(1702827534.135998) can0 0C2#693E8AE00D00E1
(1702827534.146038) can0 0C2#695C8B800E0021
(1702827534.155983) can0 0C2#69788AC00F00C5
(1702827534.166015) can0 0C2#69938B20000058
(1702827534.176003) can0 0C2#69B08B4001001A
(1702827534.185993) can0 0C2#69CC8AA002009E
(1702827534.196027) can0 0C2#69E78A800300A2
(1702827534.206148) can0 0C2#6A018A80040086
(1702827534.216013) can0 0C2#6A1B8A400500AB
(1702827534.226007) can0 0C2#6A388B000600CC
(1702827534.236147) can0 0C2#6A528A40070072
(1702827534.246032) can0 0C2#6A6E8AC00800D5
(1702827534.256147) can0 0C2#6A8A8B40090037
(1702827534.266015) can0 0C2#6AA78B000A0059
(1702827534.276019) can0 0C2#6AC48B400B00FB
(1702827534.286111) can0 0C2#6ADF8AC00C0060
(1702827534.296042) can0 0C2#6AFA8AE00D0024
(1702827534.306135) can0 0C2#6B168B000E00E5
(1702827534.316033) can0 0C2#6B318A600F006A
(1702827534.325997) can0 0C2#6B4E8AC00000FC
(1702827534.336112) can0 0C2#6B698B0001009F
(1702827534.346149) can0 0C2#6B858B00020082
(1702827534.356007) can0 0C2#6BA28B20030044
(1702827534.366140) can0 0C2#6BBD8AC0040089
(1702827534.376105) can0 0C2#6BD88AA005008D
(1702827534.386119) can0 0C2#6BF38AC0060051
(1702827534.396156) can0 0C2#6C0E8A60070094
(1702827534.406122) can0 0C2#6C298A60080078
(1702827534.416145) can0 0C2#6C438A4009007D
(1702827534.426120) can0 0C2#6C5D8A600A0042
(1702827534.436124) can0 0C2#6C7A8AE00B00A4
(1702827534.446156) can0 0C2#6C948A400C0029
(1702827534.456130) can0 0C2#6CB08AA00D00AC
(1702827534.466144) can0 0C2#6CCA8AE00E0051
(1702827534.476108) can0 0C2#6CE68AA00F0074
(1702827534.486096) can0 0C2#6D028AC0000046
(1702827534.496145) can0 0C2#6D1D8AA001004A
(1702827534.506109) can0 0C2#6D388AA002002E
(1702827534.516094) can0 0C2#6D558B4003006F
(1702827534.526095) can0 0C2#6D718AE00400B3
(1702827534.536106) can0 0C2#6D8D8AE0050096
(1702827534.546095) can0 0C2#6DA88B00060059
(1702827534.556117) can0 0C2#6DC48AE007005D
(1702827534.566101) can0 0C2#6DE08B0008001F
(1702827534.576098) can0 0C2#6DFB8A80090084
(1702827534.586133) can0 0C2#6E168A800A0067
(1702827534.596102) can0 0C2#6E318AC00B000B
(1702827534.606152) can0 0C2#6E4D8AA00C000E
(1702827534.616102) can0 0C2#6E688AA00D00F2
(1702827534.626101) can0 0C2#6E848AA00E00D5
(1702827534.636095) can0 0C2#6E9F8AA00F00B9
(1702827534.646122) can0 0C2#6EBB8B0000004B
(1702827534.656104) can0 0C2#6ED68A800100B0
(1702827534.666119) can0 0C2#6EF28AA0020073
(1702827534.676118) can0 0C2#6F0C8AE0030017
(1702827534.686094) can0 0C2#6F288A8004005A
(1702827534.696097) can0 0C2#6F448AE00500DD
(1702827534.706096) can0 0C2#6F5F8A80060021
(1702827534.716221) can0 0C2#6F7A8B00070084
(1702827534.726120) can0 0C2#6F968B20080047
(1702827534.736106) can0 0C2#6FB38AA00900AA
(1702827534.746103) can0 0C2#6FCE8AA00A008E
(1702827534.756103) can0 0C2#6FE88AA00B0073
(1702827534.766103) can0 0C2#70038A800C0076
(1702827534.776097) can0 0C2#701F8AA00D0039
(1702827534.786152) can0 0C2#70398A400E007E
(1702827534.796166) can0 0C2#70548A800F0022
(1702827534.806149) can0 0C2#706F8AE00000B6
(1702827534.816247) can0 0C2#708C8AE0010098
(1702827534.826131) can0 0C2#70A88AA00200BB
(1702827534.836153) can0 0C2#70C38AA003009F
(1702827534.846146) can0 0C2#70DD8AE0040044
(1702827534.856146) can0 0C2#70F98AC0050047
(1702827534.866123) can0 0C2#71148A6006008A
(1702827534.876142) can0 0C2#71308A8007004D
(1702827534.886098) can0 0C2#714A8AC00800F2
(1702827534.896124) can0 0C2#71668AE00900B5
(1702827534.906148) can0 0C2#71848B400A0035
(1702827534.916194) can0 0C2#71A08AC00B0099
(1702827534.926144) can0 0C2#71BC8B200C001B
(1702827534.936154) can0 0C2#71D88B400D00DE
(1702827534.946131) can0 0C2#71F48AC00E0042
(1702827534.956170) can0 0C2#72108AC00F0024
(1702827534.966202) can0 0C2#722A8A80000059
(1702827534.976109) can0 0C2#72458AA001001D
(1702827534.986170) can0 0C2#72618B0002009F
(1702827534.996128) can0 0C2#727D8AA00300E3
(1702827535.006117) can0 0C2#72998AE0040086
(1702827535.016160) can0 0C2#72B58B40050008
(1702827535.026166) can0 0C2#72D18AC006006C
(1702827535.036208) can0 0C2#72EE8B0007000D
(1702827535.046166) can0 0C2#73098AC0080031
(1702827535.056152) can0 0C2#73238A80090056
(1702827535.066159) can0 0C2#733F8AE00A00D9
(1702827535.076145) can0 0C2#735A8A400B005D
(1702827535.086155) can0 0C2#73768AC00C00C0
(1702827535.096289) can0 0C2#73908AE00D0085
(1702827535.106154) can0 0C2#73AC8AA00E00A8
(1702827535.116136) can0 0C2#73C98B200F0009
(1702827535.126145) can0 0C2#73E38A8000009F
(1702827535.136157) can0 0C2#73FE8AC0010043
(1702827535.146109) can0 0C2#741A8AE0020005
(1702827535.156152) can0 0C2#74358A60030069
(1702827535.166153) can0 0C2#74518A8004002C
(1702827535.176120) can0 0C2#746B8A80050011
(1702827535.186157) can0 0C2#74868AA00600D5
(1702827535.196118) can0 0C2#74A28AE0070078
(1702827535.206133) can0 0C2#74BD8A600800DC
(1702827535.216120) can0 0C2#74D88AA0090080
(1702827535.226116) can0 0C2#74F38AE00A0024
(1702827535.236131) can0 0C2#750E8A800B0067
(1702827535.246111) can0 0C2#752A8AC00C000A
(1702827535.256132) can0 0C2#75458A800D002E
(1702827535.266161) can0 0C2#755F8A800E0013
(1702827535.276126) can0 0C2#757B8B000F0075
(1702827535.286130) can0 0C2#75978AA00000C9
(1702827535.296121) can0 0C2#75B28AA00100AD
(1702827535.306161) can0 0C2#75B8854002000B
(1702827535.316129) can0 0C2#75B8800003004F
(1702827535.326135) can0 0C2#75B8800004004E
(1702827535.336162) can0 0C2#75B8800005004D
(1702827535.346114) can0 0C2#75B8800006004C
(1702827535.356160) can0 0C2#75B8800007004B
(1702827535.366186) can0 0C2#75B8800008004A
(1702827535.376149) can0 0C2#75B88000090049
(1702827535.386160) can0 0C2#75B880000A0048
(1702827535.396109) can0 0C2#75B880000B0047
(1702827535.406167) can0 0C2#75B880000C0046
(1702827535.416190) can0 0C2#75B880000D0045
(1702827535.426137) can0 0C2#75B880000E0044
(1702827535.436162) can0 0C2#75B880000F0043
(1702827535.446132) can0 0C2#75B88000000052
(1702827535.456153) can0 0C2#75B88000010051
(1702827535.466113) can0 0C2#75B88000020050
(1702827535.476187) can0 0C2#75B8800003004F
(1702827535.486137) can0 0C2#75B8800004004E
(1702827535.496160) can0 0C2#75B8800005004D
(1702827535.506129) can0 0C2#75B8800006004C
(1702827535.516119) can0 0C2#75B8800007004B
(1702827535.526120) can0 0C2#75B8800008004A
(1702827535.536141) can0 0C2#75B88000090049
(1702827535.546164) can0 0C2#75B880000A0048
(1702827535.556147) can0 0C2#75B880000B0047
(1702827535.566117) can0 0C2#75B880000C0046
(1702827535.576114) can0 0C2#75B880000D0045
(1702827535.586141) can0 0C2#75B880000E0044
(1702827535.596124) can0 0C2#75B880000F0043
(1702827535.606129) can0 0C2#75B88000000052
(1702827535.616112) can0 0C2#75B88000010051
(1702827535.626112) can0 0C2#75B88000020050
(1702827535.636146) can0 0C2#75B8800003004F
(1702827535.646123) can0 0C2#75B8800004004E
(1702827535.656113) can0 0C2#75B8800005004D
(1702827535.666136) can0 0C2#75B8800006004C
(1702827535.676122) can0 0C2#75B8800007004B
(1702827535.686132) can0 0C2#75B8800008004A
(1702827535.696174) can0 0C2#75B88000090049
(1702827535.706166) can0 0C2#75B880000A0048
(1702827535.716147) can0 0C2#75B880000B0047
(1702827535.726125) can0 0C2#75B880000C0046
(1702827535.736115) can0 0C2#75B880000D0045
(1702827535.746138) can0 0C2#75B880000E0044
(1702827535.756170) can0 0C2#75B880000F0043
(1702827535.766115) can0 0C2#75B88000000052
(1702827535.776131) can0 0C2#75B88000010051
(1702827535.786125) can0 0C2#75B88000020050
(1702827535.796136) can0 0C2#75B8800003004F
(1702827535.806155) can0 0C2#75B8800004004E
(1702827535.816187) can0 0C2#75B8800005004D
(1702827535.826142) can0 0C2#75B8800006004C
(1702827535.836168) can0 0C2#75B8800007004B
(1702827535.846170) can0 0C2#75B8800008004A
(1702827535.856161) can0 0C2#75B88000090049
(1702827535.866136) can0 0C2#75B880000A0048
(1702827535.876189) can0 0C2#75B880000B0047
(1702827535.886165) can0 0C2#75B880000C0046
(1702827535.896168) can0 0C2#75B880000D0045
(1702827535.906125) can0 0C2#75B880000E0044
(1702827535.916128) can0 0C2#75B880000F0043
(1702827535.926159) can0 0C2#75B88000000052
(1702827535.936121) can0 0C2#75B88000010051
(1702827535.946135) can0 0C2#75B88000020050
(1702827535.956194) can0 0C2#75B8800003004F
(1702827535.966144) can0 0C2#75B8800004004E
(1702827535.976175) can0 0C2#75B8800005004D
(1702827535.986138) can0 0C2#75B8800006004C
(1702827535.996172) can0 0C2#75B8800007004B
(1702827536.006169) can0 0C2#75B8800008004A
(1702827536.016168) can0 0C2#75B88000090049
(1702827536.026123) can0 0C2#75B880000A0048
(1702827536.036195) can0 0C2#75B880000B0047
(1702827536.046173) can0 0C2#75B880000C0046
(1702827536.056126) can0 0C2#75B880000D0045
(1702827536.066133) can0 0C2#75B880000E0044
(1702827536.076120) can0 0C2#75B880000F0043
(1702827536.086120) can0 0C2#75B88000000052
(1702827536.096170) can0 0C2#75907360010026
(1702827536.106193) can0 0C2#75807A4002004E
(1702827536.116224) can0 0C2#756475000300AE
(1702827536.126121) can0 0C2#75487560040069
(1702827536.136126) can0 0C2#752D7580050063
(1702827536.146162) can0 0C2#751275000600FD
(1702827536.156200) can0 0C2#74F775600700B8
(1702827536.166209) can0 0C2#74DB75400800F3
(1702827536.176141) can0 0C2#74C075A00900AD
(1702827536.186161) can0 0C2#74A675600A0006
(1702827536.196154) can0 0C2#748A75000B0081
(1702827536.206188) can0 0C2#746F75800C001B
(1702827536.216126) can0 0C2#745375A00D0016
(1702827536.226301) can0 0C2#743975600E006F
(1702827536.236171) can0 0C2#741E75600F0089
(1702827536.246155) can0 0C2#740275200000F4
(1702827536.256180) can0 0C2#73E675600100D0
(1702827536.266134) can0 0C2#73CC75A00200A9
(1702827536.276304) can0 0C2#73B074E0030085
(1702827536.286265) can0 0C2#7395752004005E
(1702827536.296179) can0 0C2#7378756005003A
(1702827536.306185) can0 0C2#735E7580060033
(1702827536.316128) can0 0C2#7344758007004C
(1702827536.326251) can0 0C2#732875200800C7
(1702827536.336252) can0 0C2#730C7580090082
(1702827536.346251) can0 0C2#72F175800A009D
(1702827536.356131) can0 0C2#72D674E00B0058
(1702827536.366287) can0 0C2#72BA75200C0032
(1702827536.376247) can0 0C2#729D75200D004E
(1702827536.386305) can0 0C2#728175400E0049
(1702827536.396144) can0 0C2#726674E00F00C4
(1702827536.406272) can0 0C2#724A75000000CE
(1702827536.416264) can0 0C2#722E7560010089
(1702827536.426335) can0 0C2#721375C0020043
(1702827536.436294) can0 0C2#71F8750003001E
(1702827536.446259) can0 0C2#71DD7520040018
(1702827536.456251) can0 0C2#71BF7500050055
(1702827536.466359) can0 0C2#71A4756006000F
(1702827536.476255) can0 0C2#7188750007008A
(1702827536.486366) can0 0C2#716C74C00800E6
(1702827536.496259) can0 0C2#715075200900A0
(1702827536.506253) can0 0C2#713475600A007B
(1702827536.516276) can0 0C2#711975000B00F5
(1702827536.526258) can0 0C2#70FE75600C00B0
(1702827536.536306) can0 0C2#70E275400D00EB
(1702827536.546284) can0 0C2#70C775800E00C5
(1702827536.556277) can0 0C2#70AC75800F00DF
(1702827536.566265) can0 0C2#7090750000008A
(1702827536.576284) can0 0C2#70757560010044
(1702827536.586320) can0 0C2#7059756002005F
(1702827536.596287) can0 0C2#703D756003007A
(1702827536.606255) can0 0C2#702475A0040052
(1702827536.616313) can0 0C2#700975400500CC
(1702827536.626295) can0 0C2#6FED75800600A8
(1702827536.636311) can0 0C2#6FD275A00700A2
(1702827536.646290) can0 0C2#6FB7754008001C
(1702827536.656258) can0 0C2#6F9C7520090056
(1702827536.666274) can0 0C2#6F7F75200A0072
(1702827536.676265) can0 0C2#6F6375600B004D
(1702827536.686280) can0 0C2#6F4875600C0067
(1702827536.696280) can0 0C2#6F2D75000D00E1
(1702827536.706277) can0 0C2#6F1175400E00BC
(1702827536.716318) can0 0C2#6EF575200F00F8
(1702827536.726274) can0 0C2#6EDA75600000E2
(1702827536.736312) can0 0C2#6EBF75600100FC
(1702827536.746267) can0 0C2#6EA27500020078
(1702827536.756257) can0 0C2#6E877560030032
(1702827536.766314) can0 0C2#6E6C756004004C
(1702827536.776277) can0 0C2#6E5175200500A6
(1702827536.786309) can0 0C2#6E3575200600C1
(1702827536.796295) can0 0C2#6E1975200700DC
(1702827536.806271) can0 0C2#6DFE7580080097
(1702827536.816280) can0 0C2#6DE475E0090050
(1702827536.826268) can0 0C2#6DC875200A002B
(1702827536.836335) can0 0C2#6DAD75600B0005
(1702827536.846282) can0 0C2#6D9075600C0021
(1702827536.856259) can0 0C2#6D7575200D007B
(1702827536.866285) can0 0C2#6D5A75200E0095
(1702827536.876264) can0 0C2#6D3D74C00F0012
(1702827536.886315) can0 0C2#6D2175400000BC
(1702827536.896304) can0 0C2#6D0675600100B6
(1702827536.906261) can0 0C2#6CEB7500020031
(1702827536.916313) can0 0C2#6CCE752003002D
(1702827536.926271) can0 0C2#6CB27560040008
(1702827536.936441) can0 0C2#6C987580050001
(1702827536.946367) can0 0C2#6C7D758006001B
(1702827536.956256) can0 0C2#6C617520070096
(1702827536.966286) can0 0C2#6C4775C008000F
(1702827536.976265) can0 0C2#6C2C75C0090029
(1702827536.986363) can0 0C2#6C1375A00A0061
(1702827536.996361) can0 0C2#6BF875A00B007C
(1702827537.006264) can0 0C2#6BDC75200C0017
(1702827537.016316) can0 0C2#6BC175800D00D1
(1702827537.026264) can0 0C2#6BA675600E000B
(1702827537.036297) can0 0C2#6B8A74E00F00A7
(1702827537.046353) can0 0C2#6B6E7560000051
(1702827537.056280) can0 0C2#6B5175200100AD
(1702827537.066284) can0 0C2#6B377560020086
(1702827537.076310) can0 0C2#6B1C75400300C0
(1702827537.086338) can0 0C2#6AFF74E004003E
(1702827537.096303) can0 0C2#6AE375400500F8
(1702827537.106326) can0 0C2#6AC875600600F2
(1702827537.116286) can0 0C2#6AAB74A00700CF
(1702827537.126312) can0 0C2#6A8F74E00800AA
(1702827537.136317) can0 0C2#6A727520090085
(1702827537.146300) can0 0C2#6A5674C00A0001
(1702827537.156273) can0 0C2#6A3B75200B00BA
(1702827537.166293) can0 0C2#6A1E75000C00F6
(1702827537.176368) can0 0C2#6A0275200D00F1
(1702827537.186341) can0 0C2#69E875A00E008B
(1702827537.196294) can0 0C2#69CF75C00F0083
(1702827537.206311) can0 0C2#69B475C00000AD
(1702827537.216289) can0 0C2#69977520010069
(1702827537.226283) can0 0C2#697B7540020064
(1702827537.236304) can0 0C2#696075000300BE
(1702827537.246304) can0 0C2#694474E00400FA
(1702827537.256314) can0 0C2#69297560050093
(1702827537.266321) can0 0C2#690B75200600F0
(1702827537.276318) can0 0C2#68F0750007002B
(1702827537.286323) can0 0C2#68D57520080025
(1702827537.296322) can0 0C2#68B87500090061
(1702827537.306324) can0 0C2#689D75600A001B
(1702827537.316293) can0 0C2#688175600B0036
(1702827537.326299) can0 0C2#686675000C00B0
(1702827537.336323) can0 0C2#684A75400D008B
(1702827537.346303) can0 0C2#682F75600E0085
(1702827537.356292) can0 0C2#681475800F007F
(1702827537.366322) can0 0C2#67FA75C0000069
(1702827537.376313) can0 0C2#67DF75600100E3
(1702827537.386313) can0 0C2#67C475A00200BD
(1702827537.396288) can0 0C2#67AD7660030012
(1702827537.406294) can0 0C2#67A97C0004006F
(1702827537.416319) can0 0C2#67A9800005006A
(1702827537.426317) can0 0C2#67A98000060069
(1702827537.436306) can0 0C2#67A98000070068
(1702827537.446313) can0 0C2#67A98000080067
(1702827537.456289) can0 0C2#67A98000090066
(1702827537.466301) can0 0C2#67A980000A0065
(1702827537.476333) can0 0C2#67A980000B0064
(1702827537.486296) can0 0C2#67A980000C0063
(1702827537.496333) can0 0C2#67A980000D0062
(1702827537.506400) can0 0C2#67A980000E0061
(1702827537.516291) can0 0C2#67A980000F0060
(1702827537.526294) can0 0C2#67A9800000006F
(1702827537.536312) can0 0C2#67A9800001006E
(1702827537.546326) can0 0C2#67A9800002006D
(1702827537.556356) can0 0C2#67A9800003006C
(1702827537.566280) can0 0C2#67A9800004006B
(1702827537.576293) can0 0C2#67A9800005006A
(1702827537.586286) can0 0C2#67A98000060069
(1702827537.596323) can0 0C2#67A98000070068
(1702827537.606293) can0 0C2#67A98000080067
(1702827537.616383) can0 0C2#67A98000090066
(1702827537.626326) can0 0C2#67A980000A0065
(1702827537.636313) can0 0C2#67A980000B0064
(1702827537.646327) can0 0C2#67A980000C0063
(1702827537.656349) can0 0C2#67A980000D0062
(1702827537.666360) can0 0C2#67A980000E0061
(1702827537.676329) can0 0C2#67A980000F0060
(1702827537.686319) can0 0C2#67A9800000006F
(1702827537.696327) can0 0C2#67A9800001006E
(1702827537.706314) can0 0C2#67A9800002006D
(1702827537.716305) can0 0C2#67A9800003006C
(1702827537.726309) can0 0C2#67A9800004006B
(1702827537.736324) can0 0C2#67A9800005006A
(1702827537.746309) can0 0C2#67A98000060069
(1702827537.756293) can0 0C2#67A98000070068
(1702827537.766275) can0 0C2#67A98000080067
(1702827537.776305) can0 0C2#67A98000090066
(1702827537.786299) can0 0C2#67A980000A0065
(1702827537.796326) can0 0C2#67A980000B0064
(1702827537.806351) can0 0C2#67A980000C0063
(1702827537.816301) can0 0C2#67A980000D0062
(1702827537.826331) can0 0C2#67A980000E0061
(1702827537.836351) can0 0C2#67A980000F0060
(1702827537.846326) can0 0C2#67A9800000006F
(1702827537.856361) can0 0C2#67A9800001006E
(1702827537.866308) can0 0C2#67A9800002006D
(1702827537.876334) can0 0C2#67A9800003006C
(1702827537.886318) can0 0C2#67A9800004006B
(1702827537.896330) can0 0C2#67A9800005006A
(1702827537.906302) can0 0C2#67A98000060069
(1702827537.916340) can0 0C2#67A98000070068
(1702827537.926334) can0 0C2#67A98000080067
(1702827537.936328) can0 0C2#67A98000090066
(1702827537.946331) can0 0C2#67A980000A0065
(1702827537.956312) can0 0C2#67A980000B0064
(1702827537.966284) can0 0C2#67A980000C0063
(1702827537.976319) can0 0C2#67A980000D0062
(1702827537.986337) can0 0C2#67A980000E0061
(1702827537.996373) can0 0C2#67A980000F0060
(1702827538.006332) can0 0C2#67A9800000006F
(1702827538.016345) can0 0C2#67A9800001006E
(1702827538.026292) can0 0C2#67A9800002006D
(1702827538.036335) can0 0C2#67A9800003006C
(1702827538.046379) can0 0C2#67A9800004006B
(1702827538.056320) can0 0C2#67A9800005006A
(1702827538.066299) can0 0C2#67A98000060069
(1702827538.076295) can0 0C2#67A98000070068
(1702827538.086306) can0 0C2#67A98000080067
(1702827538.096344) can0 0C2#67A98000090066
(1702827538.106301) can0 0C2#67A980000A0065
(1702827538.116307) can0 0C2#67A980000B0064
(1702827538.126304) can0 0C2#67A980000C0063
(1702827538.136336) can0 0C2#67A980000D0062
(1702827538.146328) can0 0C2#67A980000E0061
(1702827538.156323) can0 0C2#67A980000F0060
(1702827538.166338) can0 0C2#67A9800000006F
(1702827538.176317) can0 0C2#67A9800001006E
(1702827538.186335) can0 0C2#67BC82A00200B8
(1702827538.196359) can0 0C2#67DE8F600300C8
(1702827538.206344) can0 0C2#67EB8520040004
(1702827538.216324) can0 0C2#68058A00050003
(1702827538.226308) can0 0C2#68208A60060087
(1702827538.236463) can0 0C2#683C8AC007000A
(1702827538.246301) can0 0C2#68578A6008004E
(1702827538.256315) can0 0C2#68728AE00900B2
(1702827538.266312) can0 0C2#688E8B000A0074
(1702827538.276308) can0 0C2#68AA8AC00B0098
(1702827538.286320) can0 0C2#68C68AC00C007B
(1702827538.296338) can0 0C2#68E08A800D00A0
(1702827538.306464) can0 0C2#68FB8AA00E0064
(1702827538.316444) can0 0C2#69178B000F00E5
(1702827538.326340) can0 0C2#69338A80000059
(1702827538.336468) can0 0C2#69508B2001009A
(1702827538.346418) can0 0C2#696B8B6002003E
(1702827538.356493) can0 0C2#69888B00030080
(1702827538.366527) can0 0C2#69A58B20040042
(1702827538.376471) can0 0C2#69C08AA00500A7
(1702827538.386470) can0 0C2#69DB8A800600AB
(1702827538.396427) can0 0C2#69F68B200700EE
(1702827538.406351) can0 0C2#6A118A200800D2
(1702827538.416480) can0 0C2#6A2D8A60090075
(1702827538.426495) can0 0C2#6A478AA00A001A
(1702827538.436463) can0 0C2#6A628AA00B00FE
(1702827538.446426) can0 0C2#6A7F8B400C003F
(1702827538.456485) can0 0C2#6A9B8AC00D00A3
(1702827538.466483) can0 0C2#6AB88B000E0044
(1702827538.476468) can0 0C2#6AD38B600F00C8
(1702827538.486446) can0 0C2#6AEF8AC000005C
(1702827538.496489) can0 0C2#6B0C8AE001001D
(1702827538.506476) can0 0C2#6B268A80020062
(1702827538.516451) can0 0C2#6B418AA0030026
(1702827538.526513) can0 0C2#6B5E8B40040067
(1702827538.536434) can0 0C2#6B7A8AA00500EB
(1702827538.546465) can0 0C2#6B968AE006008E
(1702827538.556420) can0 0C2#6BB18B20070031
(1702827538.566512) can0 0C2#6BCD8AE0080055
(1702827538.576470) can0 0C2#6BE98AA0090078
(1702827538.586485) can0 0C2#6C038A400A00BC
(1702827538.596439) can0 0C2#6C1D8A600B0081
(1702827538.606473) can0 0C2#6C388AA00C0025
(1702827538.616437) can0 0C2#6C538A400D0069
(1702827538.626460) can0 0C2#6C6E8A600E002D
(1702827538.636429) can0 0C2#6C898AA00F00D1
(1702827538.646458) can0 0C2#6CA38AA00000C6
(1702827538.656485) can0 0C2#6CC08B00010047
(1702827538.666460) can0 0C2#6CDB8A600200CC
(1702827538.676470) can0 0C2#6CF68A80030090
(1702827538.686432) can0 0C2#6D118B000400F2
(1702827538.696478) can0 0C2#6D2D8AC0050016
(1702827538.706502) can0 0C2#6D4A8AE00600D8
(1702827538.716448) can0 0C2#6D658AC00700DC
(1702827538.726499) can0 0C2#6D808AE00800A0
(1702827538.736428) can0 0C2#6D9D8B40090021
(1702827538.746515) can0 0C2#6DB98AE00A0065
(1702827538.756474) can0 0C2#6DD58AA00B0088
(1702827538.766498) can0 0C2#6DF08AE00C002C
(1702827538.776486) can0 0C2#6E0B8AC00D002F
(1702827538.786505) can0 0C2#6E278AA00E0032
(1702827538.796455) can0 0C2#6E418A600F0057
(1702827538.806540) can0 0C2#6E5D8AA000000A
(1702827538.816477) can0 0C2#6E778AE00100AF
(1702827538.826498) can0 0C2#6E948AA00200D1
(1702827538.836458) can0 0C2#6EB08AE0030074
(1702827538.846504) can0 0C2#6ECA8AC0040079
(1702827538.856447) can0 0C2#6EE58AA005007D
(1702827538.866463) can0 0C2#6F028B200600DD
(1702827538.876477) can0 0C2#6F1C8A400700A3
(1702827538.886538) can0 0C2#6F388AA0080026
(1702827538.896471) can0 0C2#6F538B000900A9
(1702827538.906494) can0 0C2#6F6F8AE00A00AD
(1702827538.916479) can0 0C2#6F8C8B000B006E
(1702827538.926505) can0 0C2#6FA78AA00C00B3
(1702827538.936524) can0 0C2#6FC28AC00D0077
(1702827538.946501) can0 0C2#6FDE8AE00E003A
(1702827538.956480) can0 0C2#6FF88A400F00BF
(1702827538.966545) can0 0C2#70148AA0000051
(1702827538.976493) can0 0C2#702E8A80010056
(1702827538.986466) can0 0C2#70498A8002003A
(1702827538.996546) can0 0C2#70658AE00300BD
(1702827539.006460) can0 0C2#70818A80040000
(1702827539.016515) can0 0C2#709B8AC00500A5
(1702827539.026487) can0 0C2#70B78AE0060068
(1702827539.036495) can0 0C2#70D38AC007006B
(1702827539.046506) can0 0C2#70EE8AA008006F
(1702827539.056507) can0 0C2#71098AA0090052
(1702827539.066449) can0 0C2#71248A800A0056
(1702827539.076486) can0 0C2#71408AC00B00F9
(1702827539.086503) can0 0C2#715B8A800C001D
(1702827539.096444) can0 0C2#71788B000D007E
(1702827539.106501) can0 0C2#71938B400E0022
(1702827539.116512) can0 0C2#71B08B200F0024
(1702827539.126509) can0 0C2#71CD8B20000016
(1702827539.136473) can0 0C2#71E88AC001005B
(1702827539.146483) can0 0C2#72038AC002003E
(1702827539.156451) can0 0C2#721F8B000300E0
(1702827539.166501) can0 0C2#723A8A60040065
(1702827539.176487) can0 0C2#72568A80050028
(1702827539.186487) can0 0C2#72718AE00600AC
(1702827539.196456) can0 0C2#728D8AE007008F
(1702827539.206478) can0 0C2#72AA8B40080010
(1702827539.216487) can0 0C2#72C68AC0090074
(1702827539.226482) can0 0C2#72E28AE00A0037
(1702827539.236482) can0 0C2#72FD8B200B00DA
(1702827539.246503) can0 0C2#73198AA00C003D
(1702827539.256462) can0 0C2#73348A800D0041
(1702827539.266465) can0 0C2#734F8A800E0025
(1702827539.276477) can0 0C2#73698A800F000A
(1702827539.286496) can0 0C2#73868B2000005B
(1702827539.296471) can0 0C2#73A18A800100E0
(1702827539.306454) can0 0C2#73BD8AA00200A3
(1702827539.316484) can0 0C2#73D88B00030026
(1702827539.326504) can0 0C2#73F38AA004006B
(1702827539.336465) can0 0C2#74108AE005000C
(1702827539.346495) can0 0C2#742A8A60060071
(1702827539.356452) can0 0C2#74458AA0070015
(1702827539.366469) can0 0C2#74608AC00800D9
(1702827539.376493) can0 0C2#747B8A6009001D
(1702827539.386519) can0 0C2#74978A800A00E0
(1702827539.396451) can0 0C2#74B18AA00B00A5
(1702827539.406473) can0 0C2#74CC8A800C00A9
(1702827539.416502) can0 0C2#74E98B000D000A
(1702827539.426454) can0 0C2#75038A800E006F
(1702827539.436500) can0 0C2#751F8A600F0072
(1702827539.446466) can0 0C2#75398AC0000007
(1702827539.456492) can0 0C2#75558AA001000A
(1702827539.466571) can0 0C2#75708AA00200EE
(1702827539.476484) can0 0C2#758C8AE0030091
(1702827539.486507) can0 0C2#75A78AA00400B5
(1702827539.496491) can0 0C2#75B888E0050065
(1702827539.506552) can0 0C2#75B8810006004B
(1702827539.516520) can0 0C2#75B8800007004B
(1702827539.526501) can0 0C2#75B8800008004A
(1702827539.536481) can0 0C2#75B88000090049
(1702827539.546499) can0 0C2#75B880000A0048
(1702827539.556495) can0 0C2#75B880000B0047
(1702827539.566596) can0 0C2#75B880000C0046
(1702827539.576455) can0 0C2#75B880000D0045
(1702827539.586482) can0 0C2#75B880000E0044
(1702827539.596457) can0 0C2#75B880000F0043
(1702827539.606493) can0 0C2#75B88000000052
(1702827539.616489) can0 0C2#75B88000010051
(1702827539.626502) can0 0C2#75B88000020050
(1702827539.636465) can0 0C2#75B8800003004F
(1702827539.646558) can0 0C2#75B8800004004E
(1702827539.656483) can0 0C2#75B8800005004D
(1702827539.666472) can0 0C2#75B8800006004C
(1702827539.676462) can0 0C2#75B8800007004B
(1702827539.686556) can0 0C2#75B8800008004A
(1702827539.696459) can0 0C2#75B88000090049
(1702827539.706454) can0 0C2#75B880000A0048
(1702827539.716490) can0 0C2#75B880000B0047
(1702827539.726474) can0 0C2#75B880000C0046
(1702827539.736601) can0 0C2#75B880000D0045
(1702827539.746522) can0 0C2#75B880000E0044
(1702827539.756456) can0 0C2#75B880000F0043
(1702827539.766515) can0 0C2#75B88000000052
(1702827539.776471) can0 0C2#75B88000010051
(1702827539.786533) can0 0C2#75B88000020050
(1702827539.796463) can0 0C2#75B8800003004F
(1702827539.806478) can0 0C2#75B8800004004E
(1702827539.816476) can0 0C2#75B8800005004D
(1702827539.826504) can0 0C2#75B8800006004C
(1702827539.836463) can0 0C2#75B8800007004B
(1702827539.846486) can0 0C2#75B8800008004A
(1702827539.856488) can0 0C2#75B88000090049
(1702827539.866518) can0 0C2#75B880000A0048
(1702827539.876496) can0 0C2#75B880000B0047
(1702827539.886545) can0 0C2#75B880000C0046
(1702827539.896516) can0 0C2#75B880000D0045
(1702827539.906480) can0 0C2#75B880000E0044
(1702827539.916481) can0 0C2#75B880000F0043
(1702827539.926501) can0 0C2#75B88000000052
(1702827539.936499) can0 0C2#75B88000010051
(1702827539.946500) can0 0C2#75B88000020050
(1702827539.956472) can0 0C2#75B8800003004F
(1702827539.966477) can0 0C2#75B8800004004E
(1702827539.976448) can0 0C2#75B8800005004D
(1702827539.986480) can0 0C2#75B8800006004C
(1702827539.996465) can0 0C2#75B8800007004B
(1702827540.006490) can0 0C2#75B8800008004A
(1702827540.016545) can0 0C2#75B88000090049
(1702827540.026453) can0 0C2#75B880000A0048
(1702827540.036466) can0 0C2#75B880000B0047
(1702827540.046498) can0 0C2#75B880000C0046
(1702827540.056494) can0 0C2#75B880000D0045
(1702827540.066489) can0 0C2#75B880000E0044
(1702827540.076459) can0 0C2#75B880000F0043
(1702827540.086737) can0 0C2#75B88000000052
(1702827540.096464) can0 0C2#75B88000010051
(1702827540.106504) can0 0C2#75B88000020050
(1702827540.116482) can0 0C2#75B8800003004F
(1702827540.126526) can0 0C2#75B8800004004E
(1702827540.136465) can0 0C2#75B8800005004D
(1702827540.146477) can0 0C2#75B8800006004C
(1702827540.156633) can0 0C2#75B8800007004B
(1702827540.166514) can0 0C2#75B8800008004A
(1702827540.176624) can0 0C2#75B88000090049
(1702827540.186485) can0 0C2#75B880000A0048
(1702827540.196499) can0 0C2#75B880000B0047
(1702827540.206491) can0 0C2#75B880000C0046
(1702827540.216520) can0 0C2#75B880000D0045
(1702827540.226535) can0 0C2#75B880000E0044
(1702827540.236627) can0 0C2#75B880000F0043
(1702827540.246518) can0 0C2#75B88000000052
(1702827540.256461) can0 0C2#75B88000010051
(1702827540.266605) can0 0C2#75B88000020050
(1702827540.276482) can0 0C2#75B8800003004F
(1702827540.286487) can0 0C2#75997A20040053
(1702827540.296633) can0 0C2#758C7580050004
(1702827540.306628) can0 0C2#7570776006003D
(1702827540.316674) can0 0C2#75557560070059
(1702827540.326458) can0 0C2#753A7560080073
(1702827540.336574) can0 0C2#751D75000900EF
(1702827540.346508) can0 0C2#750175800A008A
(1702827540.356591) can0 0C2#74E675800B00A5
(1702827540.366586) can0 0C2#74CC75200C001E
(1702827540.376579) can0 0C2#74B075800D00D9
(1702827540.386597) can0 0C2#749475600E0014
(1702827540.396614) can0 0C2#747A75800F000D
(1702827540.406625) can0 0C2#74607580000036
(1702827540.416593) can0 0C2#74447540010091
(1702827540.426610) can0 0C2#7429758002006B
(1702827540.436592) can0 0C2#740D7580030086
(1702827540.446656) can0 0C2#73F375400400E0
(1702827540.456635) can0 0C2#73D775600500DB
(1702827540.466632) can0 0C2#73BA7500060057
(1702827540.476646) can0 0C2#739F7560070011
(1702827540.486592) can0 0C2#7385758008000A
(1702827540.496705) can0 0C2#736975000900A5
(1702827540.506631) can0 0C2#734E75800A003F
(1702827540.516635) can0 0C2#733275A00B003A
(1702827540.526597) can0 0C2#731875600C0093
(1702827540.536631) can0 0C2#72FD75800D008E
(1702827540.546665) can0 0C2#72E074E00E004B
(1702827540.556592) can0 0C2#72C475400F0005
(1702827540.566662) can0 0C2#72A9756000000F
(1702827540.576628) can0 0C2#728E7500010089
(1702827540.586632) can0 0C2#727174E00200C6
(1702827540.596643) can0 0C2#725575200300A0
(1702827540.606602) can0 0C2#7239756004007B
(1702827540.616631) can0 0C2#721F75400500B4
(1702827540.626581) can0 0C2#7203750006000F
(1702827540.636629) can0 0C2#71E775800700AB
(1702827540.646614) can0 0C2#71CC75800800C5
(1702827540.656594) can0 0C2#71B074E0090081
(1702827540.666656) can0 0C2#719475200A005B
(1702827540.676610) can0 0C2#717774C00B00D8
(1702827540.686657) can0 0C2#715B75600C0052
(1702827540.696678) can0 0C2#714075600D006C
(1702827540.706598) can0 0C2#712474C00E0028
(1702827540.716600) can0 0C2#710875400F00C2
(1702827540.726718) can0 0C2#70ED75A000008D
(1702827540.736621) can0 0C2#70D275600100E7
(1702827540.746610) can0 0C2#70B87560020000
(1702827540.756609) can0 0C2#709B750003007C
(1702827540.766629) can0 0C2#70807580040016
(1702827540.776624) can0 0C2#70657580050030
(1702827540.786611) can0 0C2#704A754006008A
(1702827540.796669) can0 0C2#702F7560070084
(1702827540.806601) can0 0C2#701475A008005E
(1702827540.816653) can0 0C2#6FF8758009009A
(1702827540.826590) can0 0C2#6FDE75800A00B3
(1702827540.836650) can0 0C2#6FC275000B004E
(1702827540.846661) can0 0C2#6FA675400C0029
(1702827540.856635) can0 0C2#6F8B75800D0003
(1702827540.866624) can0 0C2#6F6F75000E009E
(1702827540.876598) can0 0C2#6F5475400F0078
(1702827540.886608) can0 0C2#6F3775000000E4
(1702827540.896663) can0 0C2#6F1C758001007E
(1702827540.906609) can0 0C2#6F0175200200F8
(1702827540.916655) can0 0C2#6EE57500030034
(1702827540.926606) can0 0C2#6ECA75800400CE
(1702827540.936659) can0 0C2#6EAD756005000A
(1702827540.946616) can0 0C2#6E937520060063
(1702827540.956621) can0 0C2#6E78758007001D
(1702827540.966612) can0 0C2#6E5C75000800B8
(1702827540.976613) can0 0C2#6E407560090073
(1702827540.986650) can0 0C2#6E2475200A00CE
(1702827540.996613) can0 0C2#6E0A75400B00C7
(1702827541.006607) can0 0C2#6DEF75800C00A2
(1702827541.016654) can0 0C2#6DD375A00D009D
(1702827541.026593) can0 0C2#6DB875400E0017
(1702827541.036657) can0 0C2#6D9D75800F00F1
(1702827541.046617) can0 0C2#6D8074E00000BE
(1702827541.056632) can0 0C2#6D657520010097
(1702827541.066622) can0 0C2#6D4875200200B3
(1702827541.076624) can0 0C2#6D2D75200300CD
(1702827541.086644) can0 0C2#6D127500040007
(1702827541.096630) can0 0C2#6CF57500050024
(1702827541.106613) can0 0C2#6CD975400600FF
(1702827541.116660) can0 0C2#6CBF75800700D8
(1702827541.126637) can0 0C2#6CA47520080052
(1702827541.136662) can0 0C2#6C88758009000D
(1702827541.146666) can0 0C2#6C6C75600A0048
(1702827541.156641) can0 0C2#6C5275A00B0021
(1702827541.166610) can0 0C2#6C3975C00C0019
(1702827541.176617) can0 0C2#6C1D75600D0094
(1702827541.186621) can0 0C2#6C0375E00E002D
(1702827541.196628) can0 0C2#6BE775A00F0089
(1702827541.206660) can0 0C2#6BCD7520000032
(1702827541.216652) can0 0C2#6BB1756001000D
(1702827541.226619) can0 0C2#6B947500020089
(1702827541.236643) can0 0C2#6B797580030023
(1702827541.246624) can0 0C2#6B5E758004003D
(1702827541.256591) can0 0C2#6B4274A0050039
(1702827541.266610) can0 0C2#6B277580060072
(1702827541.276631) can0 0C2#6B0B75600700AD
(1702827541.286648) can0 0C2#6AEF74E008004A
(1702827541.296684) can0 0C2#6AD47540090003
(1702827541.306625) can0 0C2#6AB674C00A00A1
(1702827541.316645) can0 0C2#6A9A75000B007B
(1702827541.326614) can0 0C2#6A7F75200C0075
(1702827541.336645) can0 0C2#6A6274C00D00F2
(1702827541.346613) can0 0C2#6A4674E00E00ED
(1702827541.356642) can0 0C2#6A2A75600F0087
(1702827541.366664) can0 0C2#6A0E7500000012
(1702827541.376691) can0 0C2#69F3752001000D
(1702827541.386629) can0 0C2#69D875A00200A7
(1702827541.396611) can0 0C2#69BE760003005F
(1702827541.406608) can0 0C2#69A375800400FA
(1702827541.416617) can0 0C2#69887500050094
(1702827541.426597) can0 0C2#696B75000600B0
(1702827541.436648) can0 0C2#694E75000700CC
(1702827541.446636) can0 0C2#69337560080086
(1702827541.456613) can0 0C2#691875600900A0
(1702827541.466639) can0 0C2#68FC74C00A005D
(1702827541.476645) can0 0C2#68E075000B0037
(1702827541.486649) can0 0C2#68C375400C0013
(1702827541.496648) can0 0C2#68A875200D004D
(1702827541.506666) can0 0C2#688D75600E0027
(1702827541.516663) can0 0C2#687174E00F00C3
(1702827541.526689) can0 0C2#6855756000006D
(1702827541.536650) can0 0C2#683A7580010067
(1702827541.546674) can0 0C2#682075400200C0
(1702827541.556650) can0 0C2#680575A003007A
(1702827541.566703) can0 0C2#67E975A0040096
(1702827541.576627) can0 0C2#67CE75800500D0
(1702827541.586651) can0 0C2#67B575C00600A8
(1702827541.596640) can0 0C2#67A9792007004F
(1702827541.606640) can0 0C2#67A97F60080008
(1702827541.616651) can0 0C2#67A98000090066
(1702827541.626692) can0 0C2#67A980000A0065
(1702827541.636648) can0 0C2#67A980000B0064
(1702827541.646613) can0 0C2#67A980000C0063
(1702827541.656623) can0 0C2#67A980000D0062
(1702827541.666709) can0 0C2#67A980000E0061
(1702827541.676609) can0 0C2#67A980000F0060
(1702827541.686646) can0 0C2#67A9800000006F
(1702827541.696657) can0 0C2#67A9800001006E
(1702827541.706615) can0 0C2#67A9800002006D
(1702827541.716640) can0 0C2#67A9800003006C
(1702827541.726603) can0 0C2#67A9800004006B
(1702827541.736709) can0 0C2#67A9800005006A
(1702827541.746638) can0 0C2#67A98000060069
(1702827541.756628) can0 0C2#67A98000070068
(1702827541.766626) can0 0C2#67A98000080067
(1702827541.776615) can0 0C2#67A98000090066
(1702827541.786627) can0 0C2#67A980000A0065
(1702827541.796645) can0 0C2#67A980000B0064
(1702827541.806653) can0 0C2#67A980000C0063
(1702827541.816679) can0 0C2#67A980000D0062
(1702827541.826614) can0 0C2#67A980000E0061
(1702827541.836665) can0 0C2#67A980000F0060
(1702827541.846622) can0 0C2#67A9800000006F
(1702827541.856646) can0 0C2#67A9800001006E
(1702827541.866623) can0 0C2#67A9800002006D
(1702827541.876676) can0 0C2#67A9800003006C
(1702827541.886631) can0 0C2#67A9800004006B
(1702827541.896627) can0 0C2#67A9800005006A
(1702827541.906620) can0 0C2#67A98000060069
(1702827541.916642) can0 0C2#67A98000070068
(1702827541.926636) can0 0C2#67A98000080067
(1702827541.936667) can0 0C2#67A98000090066
(1702827541.946664) can0 0C2#67A980000A0065
(1702827541.956602) can0 0C2#67A980000B0064
(1702827541.966653) can0 0C2#67A980000C0063
(1702827541.976666) can0 0C2#67A980000D0062
(1702827541.986670) can0 0C2#67A980000E0061
(1702827541.996687) can0 0C2#67A980000F0060
(1702827542.006639) can0 0C2#67A9800000006F
(1702827542.016704) can0 0C2#67A9800001006E
(1702827542.026630) can0 0C2#67A9800002006D
(1702827542.036620) can0 0C2#67A9800003006C
(1702827542.046632) can0 0C2#67A9800004006B
(1702827542.056660) can0 0C2#67A9800005006A
(1702827542.066640) can0 0C2#67A98000060069
(1702827542.076631) can0 0C2#67A98000070068
(1702827542.086634) can0 0C2#67A98000080067
(1702827542.096675) can0 0C2#67A98000090066
(1702827542.106704) can0 0C2#67A980000A0065
(1702827542.116672) can0 0C2#67A980000B0064
(1702827542.126638) can0 0C2#67A980000C0063
(1702827542.136733) can0 0C2#67A980000D0062
(1702827542.146608) can0 0C2#67A980000E0061
(1702827542.156667) can0 0C2#67A980000F0060
(1702827542.166797) can0 0C2#67A9800000006F
(1702827542.176688) can0 0C2#67A9800001006E
(1702827542.186637) can0 0C2#67A9800002006D
(1702827542.196670) can0 0C2#67A9800003006C
(1702827542.206780) can0 0C2#67A9800004006B
(1702827542.216678) can0 0C2#67A9800005006A
(1702827542.226631) can0 0C2#67A98000060069
(1702827542.236706) can0 0C2#67A98000070068
(1702827542.246766) can0 0C2#67A98000080067
(1702827542.256675) can0 0C2#67A98000090066
(1702827542.266807) can0 0C2#67A980000A0065
(1702827542.276673) can0 0C2#67A980000B0064
(1702827542.286798) can0 0C2#67A980000C0063
(1702827542.296780) can0 0C2#67A980000D0062
(1702827542.306669) can0 0C2#67A980000E0061
(1702827542.316637) can0 0C2#67A980000F0060
(1702827542.326788) can0 0C2#67A9800000006F
(1702827542.336812) can0 0C2#67A9800001006E
(1702827542.346806) can0 0C2#67A9800002006D
(1702827542.356807) can0 0C2#67A9800003006C
(1702827542.366797) can0 0C2#67A9800004006B
(1702827542.376756) can0 0C2#67A9800005006A
(1702827542.386760) can0 0C2#67D38BC0060074
(1702827542.396768) can0 0C2#67E08920070008
(1702827542.406786) can0 0C2#67FB87E008002E
(1702827542.416851) can0 0C2#68168A400900AE
(1702827542.426695) can0 0C2#68318A600A0072
(1702827542.436790) can0 0C2#684B8A800B0037
(1702827542.446777) can0 0C2#68678AE00C00BA
(1702827542.456792) can0 0C2#68838AE00D009D
(1702827542.466760) can0 0C2#689E8A800E00E1
(1702827542.476795) can0 0C2#68B98AE00F0065
(1702827542.486754) can0 0C2#68D58B00000037
(1702827542.496781) can0 0C2#68F08A8001009C
(1702827542.506812) can0 0C2#690D8AC002003D
(1702827542.516766) can0 0C2#69278AA0030042
(1702827542.526767) can0 0C2#69438B000400C4
(1702827542.536808) can0 0C2#69618BA0050005
(1702827542.546829) can0 0C2#697D8AC00600C9
(1702827542.556806) can0 0C2#69998B0007006B
(1702827542.566757) can0 0C2#69B48B2008002F
(1702827542.576738) can0 0C2#69D08AA0090093
(1702827542.586769) can0 0C2#69EC8AC00A0056
(1702827542.596740) can0 0C2#6A068A600B009A
(1702827542.606810) can0 0C2#6A208A400C009F
(1702827542.616836) can0 0C2#6A3C8B000D00C1
(1702827542.626762) can0 0C2#6A578A800E0026
(1702827542.636773) can0 0C2#6A748AA00F00E8
(1702827542.646760) can0 0C2#6A8F8B2000005B
(1702827542.656771) can0 0C2#6AAB8B0001005E
(1702827542.666760) can0 0C2#6AC98B800200BF
(1702827542.676761) can0 0C2#6AE48AA0030084
(1702827542.686838) can0 0C2#6B008AE0040026
(1702827542.696764) can0 0C2#6B1B8AE005000A
(1702827542.706846) can0 0C2#6B368AA006002E
(1702827542.716759) can0 0C2#6B538AC00700F0
(1702827542.726783) can0 0C2#6B6E8AE00800B4
(1702827542.736816) can0 0C2#6B8A8B00090076
(1702827542.746782) can0 0C2#6BA78B200A0038
(1702827542.756850) can0 0C2#6BC28AA00B009D
(1702827542.766883) can0 0C2#6BDD8A800C00A1
(1702827542.776788) can0 0C2#6BF78AA00D0066
(1702827542.786804) can0 0C2#6C128A600E0089
(1702827542.796794) can0 0C2#6C2E8A800F004C
(1702827542.806777) can0 0C2#6C488A40000081
(1702827542.816761) can0 0C2#6C628A60010046
(1702827542.826765) can0 0C2#6C7E8B00020088
(1702827542.836850) can0 0C2#6C998A6003000D
(1702827542.846756) can0 0C2#6CB58A800400D0
(1702827542.856800) can0 0C2#6CCF8AC0050075
(1702827542.866770) can0 0C2#6CEA8AA0060079
(1702827542.876753) can0 0C2#6D078B000700F9
(1702827542.886799) can0 0C2#6D228A8008005E
(1702827542.896758) can0 0C2#6D3D8AA0090022
(1702827542.906804) can0 0C2#6D598B400A0064
(1702827542.916800) can0 0C2#6D758B000B0087
(1702827542.926789) can0 0C2#6D928AE00C008A
(1702827542.936788) can0 0C2#6DAE8AE00D006D
(1702827542.946783) can0 0C2#6DC98AC00E0071
(1702827542.956797) can0 0C2#6DE58B000F0013
(1702827542.966767) can0 0C2#6E008AA0000067
(1702827542.976769) can0 0C2#6E1B8A6001008B
(1702827542.986801) can0 0C2#6E368AC002000F
(1702827542.996766) can0 0C2#6E518AA0030013
(1702827543.006752) can0 0C2#6E6D8AE00400B6
(1702827543.016814) can0 0C2#6E888A800500FA
(1702827543.026774) can0 0C2#6EA38AC006009E
(1702827543.036792) can0 0C2#6EBF8B00070040
(1702827543.046778) can0 0C2#6EDB8A800800A4
(1702827543.056795) can0 0C2#6EF78AE0090027
(1702827543.066833) can0 0C2#6F118A800A006B
(1702827543.076813) can0 0C2#6F2C8A800B004F
(1702827543.086808) can0 0C2#6F498B200C0090
(1702827543.096806) can0 0C2#6F648A800D0015
(1702827543.106772) can0 0C2#6F808AE00E0098
(1702827543.116819) can0 0C2#6F9B8B000F005B
(1702827543.126764) can0 0C2#6FB78AC000008F
(1702827543.136813) can0 0C2#6FD38AC0010072
(1702827543.146781) can0 0C2#6FED8A80020097
(1702827543.156801) can0 0C2#70088A8003007A
(1702827543.166826) can0 0C2#70238AC004001E
(1702827543.176829) can0 0C2#703F8A60050061
(1702827543.186803) can0 0C2#705A8A80060025
(1702827543.196812) can0 0C2#70748AC00700CA
(1702827543.206803) can0 0C2#70908AE008008D
(1702827543.216854) can0 0C2#70AD8AE009006F
(1702827543.226819) can0 0C2#70C88A800A00B3
(1702827543.236805) can0 0C2#70E38AA00B0077
(1702827543.246760) can0 0C2#70FE8AE00C001B
(1702827543.256798) can0 0C2#71198A600D007E
(1702827543.266815) can0 0C2#71348A800E0042
(1702827543.276814) can0 0C2#714F8AA00F0006
(1702827543.286750) can0 0C2#716B8AE00000B9
(1702827543.296819) can0 0C2#71888B6001001A
(1702827543.306804) can0 0C2#71A48AE002007E
(1702827543.316814) can0 0C2#71C18B2003001F
(1702827543.326754) can0 0C2#71DC8B20040003
(1702827543.336806) can0 0C2#71F88AC0050047
(1702827543.346782) can0 0C2#72148AE0060009
(1702827543.356806) can0 0C2#722F8A8007004D
(1702827543.366841) can0 0C2#724A8A80080031
(1702827543.376769) can0 0C2#72668B20090073
(1702827543.386757) can0 0C2#72818A800A00F8
(1702827543.396782) can0 0C2#729E8B000B0059
(1702827543.406785) can0 0C2#72BA8B200C001C
(1702827543.416783) can0 0C2#72D58B000D0020
(1702827543.426763) can0 0C2#72F28B200E00E2
(1702827543.436766) can0 0C2#730D8A600F0086
(1702827543.446801) can0 0C2#73288AA000003A
(1702827543.456772) can0 0C2#73438AC00100FE
(1702827543.466774) can0 0C2#735F8A80020021
(1702827543.476756) can0 0C2#737B8AC00300C4
(1702827543.486752) can0 0C2#73958AA00400C9
(1702827543.496763) can0 0C2#73B08AC005008D
(1702827543.506758) can0 0C2#73CD8B0006002E
(1702827543.516760) can0 0C2#73E88A80070093
(1702827543.526759) can0 0C2#74048AC0080035
(1702827543.536778) can0 0C2#741F8AC0090019
(1702827543.546802) can0 0C2#743A8A800A003D
(1702827543.556758) can0 0C2#74558AA00B0001
(1702827543.566775) can0 0C2#74708A600C0025
(1702827543.576760) can0 0C2#748B8A800D00E9
(1702827543.586757) can0 0C2#74A68AE00E006D
(1702827543.596781) can0 0C2#74C28A600F00D0
(1702827543.606787) can0 0C2#74DE8AA0000083
(1702827543.616762) can0 0C2#74F88AA0010068
(1702827543.626760) can0 0C2#75128A8002006C
(1702827543.636884) can0 0C2#752F8AC003000E
(1702827543.646761) can0 0C2#75498A60040053
(1702827543.656778) can0 0C2#75658A80050016
(1702827543.666911) can0 0C2#75808B00060079
(1702827543.676787) can0 0C2#759C8AE007007D
(1702827543.686760) can0 0C2#75B58A600800E3
(1702827543.696893) can0 0C2#75B883C0090086
(1702827543.706896) can0 0C2#75B880000A0048
(1702827543.716912) can0 0C2#75B880000B0047
(1702827543.726971) can0 0C2#75B880000C0046
(1702827543.736765) can0 0C2#75B880000D0045
(1702827543.746936) can0 0C2#75B880000E0044
(1702827543.756955) can0 0C2#75B880000F0043
(1702827543.766887) can0 0C2#75B88000000052
(1702827543.777012) can0 0C2#75B88000010051
(1702827543.786893) can0 0C2#75B88000020050
(1702827543.796997) can0 0C2#75B8800003004F
(1702827543.806983) can0 0C2#75B8800004004E
(1702827543.816914) can0 0C2#75B8800005004D
(1702827543.826918) can0 0C2#75B8800006004C
(1702827543.836904) can0 0C2#75B8800007004B
(1702827543.846900) can0 0C2#75B8800008004A
(1702827543.856931) can0 0C2#75B88000090049
(1702827543.866962) can0 0C2#75B880000A0048
(1702827543.876917) can0 0C2#75B880000B0047
(1702827543.886902) can0 0C2#75B880000C0046
(1702827543.896951) can0 0C2#75B880000D0045
(1702827543.906915) can0 0C2#75B880000E0044
(1702827543.916893) can0 0C2#75B880000F0043
(1702827543.926968) can0 0C2#75B88000000052
(1702827543.936917) can0 0C2#75B88000010051
(1702827543.946971) can0 0C2#75B88000020050
(1702827543.956961) can0 0C2#75B8800003004F
(1702827543.966943) can0 0C2#75B8800004004E
(1702827543.976902) can0 0C2#75B8800005004D
(1702827543.986907) can0 0C2#75B8800006004C
(1702827543.996916) can0 0C2#75B8800007004B
(1702827544.007026) can0 0C2#75B8800008004A
(1702827544.016948) can0 0C2#75B88000090049
(1702827544.026983) can0 0C2#75B880000A0048
(1702827544.036957) can0 0C2#75B880000B0047
(1702827544.046962) can0 0C2#75B880000C0046
(1702827544.056965) can0 0C2#75B880000D0045
(1702827544.066954) can0 0C2#75B880000E0044
(1702827544.076994) can0 0C2#75B880000F0043
(1702827544.086923) can0 0C2#75B88000000052
(1702827544.096967) can0 0C2#75B88000010051
(1702827544.106925) can0 0C2#75B88000020050
(1702827544.116955) can0 0C2#75B8800003004F
(1702827544.127052) can0 0C2#75B8800004004E
(1702827544.136895) can0 0C2#75B8800005004D
(1702827544.146903) can0 0C2#75B8800006004C
(1702827544.156960) can0 0C2#75B8800007004B
(1702827544.166917) can0 0C2#75B8800008004A
(1702827544.176990) can0 0C2#75B88000090049
(1702827544.186901) can0 0C2#75B880000A0048
(1702827544.197003) can0 0C2#75B880000B0047
(1702827544.206942) can0 0C2#75B880000C0046
(1702827544.216955) can0 0C2#75B880000D0045
(1702827544.226989) can0 0C2#75B880000E0044
(1702827544.236929) can0 0C2#75B880000F0043
(1702827544.246963) can0 0C2#75B88000000052
(1702827544.257041) can0 0C2#75B88000010051
(1702827544.266951) can0 0C2#75B88000020050
(1702827544.276951) can0 0C2#75B8800003004F
(1702827544.286915) can0 0C2#75B8800004004E
(1702827544.296962) can0 0C2#75B8800005004D
(1702827544.306977) can0 0C2#75B8800006004C
(1702827544.316952) can0 0C2#75B8800007004B
(1702827544.326993) can0 0C2#75B8800008004A
(1702827544.336939) can0 0C2#75B88000090049
(1702827544.346962) can0 0C2#75B880000A0048
(1702827544.356942) can0 0C2#75B880000B0047
(1702827544.366956) can0 0C2#75B880000C0046
(1702827544.376951) can0 0C2#75B880000D0045
(1702827544.386929) can0 0C2#75B880000E0044
(1702827544.396964) can0 0C2#75B880000F0043
(1702827544.406899) can0 0C2#75B88000000052
(1702827544.416970) can0 0C2#75B88000010051
(1702827544.426961) can0 0C2#75B88000020050
(1702827544.436931) can0 0C2#75B8800003004F
(1702827544.446961) can0 0C2#75B8800004004E
(1702827544.456948) can0 0C2#75B8800005004D
(1702827544.466920) can0 0C2#75B8800006004C
(1702827544.476936) can0 0C2#75B07F40070014
(1702827544.486920) can0 0C2#758E7200080082
(1702827544.496919) can0 0C2#757B7A4009004C
(1702827544.506932) can0 0C2#755F75000A00AC
(1702827544.516922) can0 0C2#754475600B0066
(1702827544.526922) can0 0C2#752875600C0081
(1702827544.536918) can0 0C2#750E75400D00BA
(1702827544.546968) can0 0C2#74F275600E00B6
(1702827544.556971) can0 0C2#74D675400F00F1
(1702827544.566913) can0 0C2#74BB75A00000BB
(1702827544.576975) can0 0C2#74A17560010014
(1702827544.586951) can0 0C2#7485750002008F
(1702827544.596997) can0 0C2#746B7580030028
(1702827544.606906) can0 0C2#744E7580040044
(1702827544.616946) can0 0C2#7434758005005D
(1702827544.626914) can0 0C2#741975A0060057
(1702827544.636956) can0 0C2#73FD74E0070034
(1702827544.646915) can0 0C2#73E275800800AD
(1702827544.656915) can0 0C2#73C675600900E8
(1702827544.666926) can0 0C2#73AC75200A0041
(1702827544.676961) can0 0C2#739075400B003C
(1702827544.686955) can0 0C2#737475200C0077
(1702827544.696945) can0 0C2#735975A00D0011
(1702827544.706962) can0 0C2#733F75A00E002A
(1702827544.716916) can0 0C2#732375200F00C5
(1702827544.726907) can0 0C2#7308758000008F
(1702827544.736956) can0 0C2#72EC75600100CB
(1702827544.746923) can0 0C2#72D17500020045
(1702827544.756957) can0 0C2#72B57520030040
(1702827544.766967) can0 0C2#7298750004007C
(1702827544.777000) can0 0C2#727D7560050036
(1702827544.786933) can0 0C2#72617520060091
(1702827544.796971) can0 0C2#724674E00700EC
(1702827544.806967) can0 0C2#722A75400800A6
(1702827544.816989) can0 0C2#720D75600900A2
(1702827544.826964) can0 0C2#71F375600A00BC
(1702827544.836953) can0 0C2#71D875600B00D6
(1702827544.846932) can0 0C2#71BB74E00C0073
(1702827544.856936) can0 0C2#719F75200D004D
(1702827544.866921) can0 0C2#718275000E0089
(1702827544.876948) can0 0C2#716875000F00A2
(1702827544.886943) can0 0C2#714C75200000AD
(1702827544.896928) can0 0C2#712F75200100C9
(1702827544.906932) can0 0C2#711375200200E4
(1702827544.916921) can0 0C2#70F9758003009E
(1702827544.926983) can0 0C2#70DE7520040018
(1702827544.936956) can0 0C2#70C375600500F2
(1702827544.946930) can0 0C2#70A6756006000E
(1702827544.956940) can0 0C2#708C7540070047
(1702827544.966917) can0 0C2#70717560080041
(1702827544.976931) can0 0C2#7055752009009C
(1702827544.986939) can0 0C2#703975600A0077
(1702827544.996942) can0 0C2#701F75C00B0030
(1702827545.006977) can0 0C2#700475400C00CA
(1702827545.016966) can0 0C2#6FE975400D00E5
(1702827545.026914) can0 0C2#6FCD75A00E00A0
(1702827545.036926) can0 0C2#6FB275600F00FA
(1702827545.047003) can0 0C2#6F977540000044
(1702827545.057022) can0 0C2#6F7B74E00100C0
(1702827545.066942) can0 0C2#6F5F754002007A
(1702827545.076962) can0 0C2#6F437580030055
(1702827545.086928) can0 0C2#6F2875000400EF
(1702827545.096967) can0 0C2#6F0C75200500EA
(1702827545.106971) can0 0C2#6EF075400600E6
(1702827545.116953) can0 0C2#6ED575600700E0
(1702827545.126959) can0 0C2#6EBA75800800DA
(1702827545.136933) can0 0C2#6E9E74C00900B6
(1702827545.146949) can0 0C2#6E8375600A002F
(1702827545.156942) can0 0C2#6E6675600B004B
(1702827545.166957) can0 0C2#6E4B75400C0085
(1702827545.176950) can0 0C2#6E3075200D00BF
(1702827545.186979) can0 0C2#6E1475000E00FA
(1702827545.196936) can0 0C2#6DF975A00F0075
(1702827545.206935) can0 0C2#6DDE75E000005F
(1702827545.216966) can0 0C2#6DC47520010038
(1702827545.226976) can0 0C2#6DA87560020013
(1702827545.236975) can0 0C2#6D8B754003004F
(1702827545.246957) can0 0C2#6D707520040089
(1702827545.256945) can0 0C2#6D5575200500A3
(1702827545.266978) can0 0C2#6D3874C0060020
(1702827545.276973) can0 0C2#6D1C75400700BA
(1702827545.286965) can0 0C2#6D0075400800D5
(1702827545.296934) can0 0C2#6CE57520090010
(1702827545.306944) can0 0C2#6CCA75200A002A
(1702827545.316940) can0 0C2#6CAE75200B0045
(1702827545.326996) can0 0C2#6C9375A00C00DF
(1702827545.336930) can0 0C2#6C7875800D0019
(1702827545.346940) can0 0C2#6C5E75200E0092
(1702827545.356993) can0 0C2#6C4375A00F002C
(1702827545.366969) can0 0C2#6C2775C0000037
(1702827545.376921) can0 0C2#6C0E75C001004F
(1702827545.386966) can0 0C2#6BF475C0020069
(1702827545.396964) can0 0C2#6BD774E0030066
(1702827545.406953) can0 0C2#6BBC75800400DF
(1702827545.417004) can0 0C2#6BA175A00500D9
(1702827545.426925) can0 0C2#6B8574E00600B5
(1702827545.436924) can0 0C2#6B6A756007004E
(1702827545.446935) can0 0C2#6B4D74E00800EB
(1702827545.456951) can0 0C2#6B317560090085
(1702827545.466978) can0 0C2#6B1775600A009E
(1702827545.476936) can0 0C2#6AFA74C00B005C
(1702827545.486977) can0 0C2#6ADF75400C00F5
(1702827545.496930) can0 0C2#6AC275600D00F1
(1702827545.506969) can0 0C2#6AA774C00E00AC
(1702827545.517015) can0 0C2#6A8A74E00F00A8
(1702827545.526985) can0 0C2#6A6D74E00000D4
(1702827545.536970) can0 0C2#6A5175000100CE
(1702827545.546974) can0 0C2#6A3675400200A8
(1702827545.556930) can0 0C2#6A1974E0030025
(1702827545.566992) can0 0C2#69FE75200400FF
(1702827545.576954) can0 0C2#69E375C0050079
(1702827545.586970) can0 0C2#69CA75C0060091
(1702827545.596971) can0 0C2#69B075A00700CA
(1702827545.606932) can0 0C2#69937500080086
(1702827545.616953) can0 0C2#69767520090082
(1702827545.626935) can0 0C2#695A75200A009D
(1702827545.636970) can0 0C2#694075200B00B6
(1702827545.647018) can0 0C2#692475200C00D1
(1702827545.656961) can0 0C2#690775000D000D
(1702827545.666955) can0 0C2#68EA75000E002A
(1702827545.676960) can0 0C2#68CF75400F0004
(1702827545.686975) can0 0C2#68B4750000006E
(1702827545.696978) can0 0C2#68987560010029
(1702827545.706971) can0 0C2#687C7560020044
(1702827545.716974) can0 0C2#6861752003009E
(1702827545.726960) can0 0C2#68467560040078
(1702827545.736948) can0 0C2#682A75200500D3
(1702827545.746991) can0 0C2#680F75A006006D
(1702827545.756979) can0 0C2#67F575C0070067
(1702827545.766986) can0 0C2#67DB75600800E0
(1702827545.776951) can0 0C2#67C075A00900BA
(1702827545.786985) can0 0C2#67AB76E00A008D
(1702827545.796956) can0 0C2#67A97D200B0047
(1702827545.806964) can0 0C2#67A980000C0063
(1702827545.816945) can0 0C2#67A980000D0062
(1702827545.826943) can0 0C2#67A980000E0061
(1702827545.836978) can0 0C2#67A980000F0060
(1702827545.846957) can0 0C2#67A9800000006F
(1702827545.856945) can0 0C2#67A9800001006E
(1702827545.866985) can0 0C2#67A9800002006D
(1702827545.876951) can0 0C2#67A9800003006C
(1702827545.886993) can0 0C2#67A9800004006B
(1702827545.896995) can0 0C2#67A9800005006A
(1702827545.906978) can0 0C2#67A98000060069
(1702827545.916922) can0 0C2#67A98000070068
(1702827545.926929) can0 0C2#67A98000080067
(1702827545.936934) can0 0C2#67A98000090066
(1702827545.946996) can0 0C2#67A980000A0065
(1702827545.956972) can0 0C2#67A980000B0064
(1702827545.966994) can0 0C2#67A980000C0063
(1702827545.976950) can0 0C2#67A980000D0062
(1702827545.986999) can0 0C2#67A980000E0061
(1702827545.996986) can0 0C2#67A980000F0060
(1702827546.006958) can0 0C2#67A9800000006F
(1702827546.016930) can0 0C2#67A9800001006E
(1702827546.027013) can0 0C2#67A9800002006D
(1702827546.036930) can0 0C2#67A9800003006C
(1702827546.046925) can0 0C2#67A9800004006B
(1702827546.056937) can0 0C2#67A9800005006A
(1702827546.066939) can0 0C2#67A98000060069
(1702827546.076964) can0 0C2#67A98000070068
(1702827546.086978) can0 0C2#67A98000080067
(1702827546.096936) can0 0C2#67A98000090066
(1702827546.107006) can0 0C2#67A980000A0065
(1702827546.117038) can0 0C2#67A980000B0064
(1702827546.127031) can0 0C2#67A980000C0063
(1702827546.136947) can0 0C2#67A980000D0062
(1702827546.146952) can0 0C2#67A980000E0061
(1702827546.157018) can0 0C2#67A980000F0060
(1702827546.167008) can0 0C2#67A9800000006F
(1702827546.176998) can0 0C2#67A9800001006E
(1702827546.187062) can0 0C2#67A9800002006D
(1702827546.196998) can0 0C2#67A9800003006C
(1702827546.206936) can0 0C2#67A9800004006B
(1702827546.217000) can0 0C2#67A9800005006A
(1702827546.227002) can0 0C2#67A98000060069
(1702827546.237035) can0 0C2#67A98000070068
(1702827546.247056) can0 0C2#67A98000080067
(1702827546.257094) can0 0C2#67A98000090066
(1702827546.267021) can0 0C2#67A980000A0065
(1702827546.276960) can0 0C2#67A980000B0064
(1702827546.287090) can0 0C2#67A980000C0063
(1702827546.297128) can0 0C2#67A980000D0062
(1702827546.307049) can0 0C2#67A980000E0061
(1702827546.317030) can0 0C2#67A980000F0060
(1702827546.327073) can0 0C2#67A9800000006F
(1702827546.337074) can0 0C2#67A9800001006E
(1702827546.347088) can0 0C2#67A9800002006D
(1702827546.357074) can0 0C2#67A9800003006C
(1702827546.367102) can0 0C2#67A9800004006B
(1702827546.377079) can0 0C2#67A9800005006A
(1702827546.387170) can0 0C2#67A98000060069
(1702827546.397081) can0 0C2#67A98000070068
(1702827546.407077) can0 0C2#67A98000080067
(1702827546.417113) can0 0C2#67A98000090066
(1702827546.427083) can0 0C2#67A980000A0065
(1702827546.437108) can0 0C2#67A980000B0064
(1702827546.447120) can0 0C2#67A980000C0063
(1702827546.457094) can0 0C2#67A980000D0062
(1702827546.467117) can0 0C2#67A980000E0061
(1702827546.477142) can0 0C2#67A980000F0060
(1702827546.487127) can0 0C2#67A9800000006F
(1702827546.497087) can0 0C2#67A9800001006E
(1702827546.507094) can0 0C2#67A9800002006D
(1702827546.517126) can0 0C2#67A9800003006C
(1702827546.527063) can0 0C2#67A9800004006B
(1702827546.537114) can0 0C2#67A9800005006A
(1702827546.547119) can0 0C2#67A98000060069
(1702827546.557122) can0 0C2#67A98000070068
(1702827546.567085) can0 0C2#67A98000080067
(1702827546.577210) can0 0C2#67C58520090025
(1702827546.587079) can0 0C2#67DF8E800A00A1
(1702827546.597121) can0 0C2#67F185400B00D7
(1702827546.607069) can0 0C2#680B8A200C00D6
(1702827546.617116) can0 0C2#68248A600D007C
(1702827546.627091) can0 0C2#68408AE00E00DF
(1702827546.637111) can0 0C2#685C8A800F0022
(1702827546.647118) can0 0C2#68788AC00000D5
(1702827546.657127) can0 0C2#68928AE001009A
(1702827546.667105) can0 0C2#68AE8AE002007D
(1702827546.677084) can0 0C2#68CB8AE003005F
(1702827546.687164) can0 0C2#68E58A600400C4
(1702827546.697092) can0 0C2#69018AA0050066
(1702827546.707073) can0 0C2#691C8B000600E9
(1702827546.717085) can0 0C2#69388AA007002D
(1702827546.727073) can0 0C2#69568B4008006D
(1702827546.737137) can0 0C2#69718B00090091
(1702827546.747184) can0 0C2#698D8B400A0034
(1702827546.757062) can0 0C2#69AA8B400B0016
(1702827546.767126) can0 0C2#69C58A600C00DB
(1702827546.777102) can0 0C2#69E08A800D009F
(1702827546.787131) can0 0C2#69FB8AE00E0023
(1702827546.797149) can0 0C2#6A168A400F00A6
(1702827546.807106) can0 0C2#6A328A80000059
(1702827546.817103) can0 0C2#6A4C8A8001003E
(1702827546.827102) can0 0C2#6A678AA0020002
(1702827546.837113) can0 0C2#6A848B40030043
(1702827546.847115) can0 0C2#6AA08AE0040087
(1702827546.857070) can0 0C2#6ABD8B20050028
(1702827546.867121) can0 0C2#6AD98B2006000B
(1702827546.877302) can0 0C2#6AF48AE0070030
(1702827546.887082) can0 0C2#6B108B000800F1
(1702827546.897121) can0 0C2#6B2B8A60090076
(1702827546.907068) can0 0C2#6B468AA00A001A
(1702827546.917075) can0 0C2#6B628B200B007C
(1702827546.927092) can0 0C2#6B7F8AE00C009F
(1702827546.937123) can0 0C2#6B9B8AE00D0082
(1702827546.947152) can0 0C2#6BB68AE00E0066
(1702827546.957084) can0 0C2#6BD18AC00F006A
(1702827546.967105) can0 0C2#6BED8AE000003D
(1702827546.977093) can0 0C2#6C088A200100E0
(1702827546.987093) can0 0C2#6C228A60020085
(1702827546.997104) can0 0C2#6C3C8A8003004A
(1702827547.007081) can0 0C2#6C578A6004004E
(1702827547.017083) can0 0C2#6C748AA00500F0
(1702827547.027095) can0 0C2#6C8E8A60060015
(1702827547.037107) can0 0C2#6CA88AA00700BA
(1702827547.047098) can0 0C2#6CC48AE008005D
(1702827547.057081) can0 0C2#6CDF8A800900A1
(1702827547.067103) can0 0C2#6CFB8AA00A0064
(1702827547.077088) can0 0C2#6D168AE00B0007
(1702827547.087090) can0 0C2#6D318AA00C002B
(1702827547.097158) can0 0C2#6D4E8B000D00AC
(1702827547.107105) can0 0C2#6D6A8AC00E00D0
(1702827547.117114) can0 0C2#6D868AE00F0093
(1702827547.127090) can0 0C2#6DA18B40000026
(1702827547.137093) can0 0C2#6DBE8AE0010069
(1702827547.147126) can0 0C2#6DDA8AA002008C
(1702827547.157076) can0 0C2#6DF58AC0030050
(1702827547.167128) can0 0C2#6E0F8AA0040054
(1702827547.177097) can0 0C2#6E2B8AE00500F7
(1702827547.187123) can0 0C2#6E468A6006005B
(1702827547.197129) can0 0C2#6E628AA00700FE
(1702827547.207104) can0 0C2#6E7C8AC00800C3
(1702827547.217129) can0 0C2#6E988AE0090086
(1702827547.227082) can0 0C2#6EB58AE00A0068
(1702827547.237133) can0 0C2#6ED08AA00B008C
(1702827547.247138) can0 0C2#6EEB8AA00C0070
(1702827547.257080) can0 0C2#6F068AE00D0013
(1702827547.267093) can0 0C2#6F218A600E0077
(1702827547.277079) can0 0C2#6F3D8AA00F001A
(1702827547.287077) can0 0C2#6F588AE00000CE
(1702827547.297084) can0 0C2#6F748B00010090
(1702827547.307073) can0 0C2#6F918B20020052
(1702827547.317116) can0 0C2#6FAB8A600300F8
(1702827547.327078) can0 0C2#6FC78AE004005B
(1702827547.337092) can0 0C2#6FE28AE005003F
(1702827547.347083) can0 0C2#6FFD8A80060083
(1702827547.357109) can0 0C2#70188A80070066
(1702827547.367078) can0 0C2#70338A6008006A
(1702827547.377112) can0 0C2#704E8AA009000E
(1702827547.387146) can0 0C2#706A8B000A0090
(1702827547.397087) can0 0C2#70858A800B00F5
(1702827547.407103) can0 0C2#70A18AC00C0098
(1702827547.417169) can0 0C2#70BC8AE00D005C
(1702827547.427081) can0 0C2#70D78AE00E0040
(1702827547.437133) can0 0C2#70F38AA00F0063
(1702827547.447081) can0 0C2#710E8A80000076
(1702827547.457101) can0 0C2#71288A8001005B
(1702827547.467149) can0 0C2#71448AE00200DE
(1702827547.477096) can0 0C2#71608AA0030001
(1702827547.487134) can0 0C2#717D8B00040082
(1702827547.497126) can0 0C2#71998B00050065
(1702827547.507113) can0 0C2#71B58B00060048
(1702827547.517184) can0 0C2#71D28B600700CA
(1702827547.527106) can0 0C2#71ED8A8008008F
(1702827547.537135) can0 0C2#72098AE0090011
(1702827547.547083) can0 0C2#72238AE00A00F6
(1702827547.557081) can0 0C2#723F8A800B0039
(1702827547.567131) can0 0C2#725B8AC00C00DC
(1702827547.577113) can0 0C2#72768AA00D00E0
(1702827547.587080) can0 0C2#72928AE00E0083
(1702827547.597134) can0 0C2#72AF8B600F00E4
(1702827547.607143) can0 0C2#72CA8AC0000079
(1702827547.617126) can0 0C2#72E78B0001001A
(1702827547.627087) can0 0C2#73028AE002001E
(1702827547.637113) can0 0C2#731D8AA0030042
(1702827547.647102) can0 0C2#73398AA0040025
(1702827547.657106) can0 0C2#73538A6005004A
(1702827547.667153) can0 0C2#736E8A8006000E
(1702827547.677102) can0 0C2#738A8B20070050
(1702827547.687112) can0 0C2#73A68A800800D4
(1702827547.697189) can0 0C2#73C28AC0090077
(1702827547.707139) can0 0C2#73DD8AC00A005B
(1702827547.717145) can0 0C2#73F88AE00B001F
(1702827547.727087) can0 0C2#74148AE00C0001
