(1702827640.274749) can0 0C2#69127A400200C8
(1702827640.284644) can0 0C2#69037A80030096
(1702827640.294668) can0 0C2#68F57A800400A4
(1702827640.304711) can0 0C2#68E87A800500B0
(1702827640.314697) can0 0C2#68DA7AC006007D
(1702827640.324723) can0 0C2#68CC7A800700CA
(1702827640.334703) can0 0C2#68BE7AA00800B7
(1702827640.344704) can0 0C2#68B07AA00900C4
(1702827640.354656) can0 0C2#68A37AA00A00D0
(1702827640.364704) can0 0C2#68957AC00B00BD
(1702827640.374709) can0 0C2#68877A800C000A
(1702827640.384713) can0 0C2#68797AA00D00F7
(1702827640.394692) can0 0C2#686B7A800E0024
(1702827640.404734) can0 0C2#685E7A800F0030
(1702827640.414717) can0 0C2#68507AE00000ED
(1702827640.424758) can0 0C2#68427AA001003A
(1702827640.434746) can0 0C2#68357AA0020046
(1702827640.444708) can0 0C2#68277AA0030053
(1702827640.454708) can0 0C2#68197AA0040060
(1702827640.464708) can0 0C2#680C7B0005000B
(1702827640.474705) can0 0C2#67FF7AC0060059
(1702827640.484717) can0 0C2#67F27AC0070065
(1702827640.494700) can0 0C2#67E47AC0080072
(1702827640.504674) can0 0C2#67D67AA009009F
(1702827640.514676) can0 0C2#67CA7B000A0049
(1702827640.524690) can0 0C2#67BD7AE00B0076
(1702827640.534668) can0 0C2#67AF7AA00C00C3
(1702827640.544722) can0 0C2#67A27AC00D00AF
(1702827640.554709) can0 0C2#679F7D600E000E
(1702827640.564708) can0 0C2#679F80000F006A
(1702827640.574676) can0 0C2#679F8000000079
(1702827640.584704) can0 0C2#679F8000010078
(1702827640.594693) can0 0C2#679F8000020077
(1702827640.604672) can0 0C2#679F8000030076
(1702827640.614672) can0 0C2#679F8000040075
(1702827640.624695) can0 0C2#679F8000050074
(1702827640.634701) can0 0C2#679F8000060073
(1702827640.644695) can0 0C2#679F8000070072
(1702827640.654695) can0 0C2#679F8000080071
(1702827640.664698) can0 0C2#679F8000090070
(1702827640.674696) can0 0C2#679F80000A006F
(1702827640.684671) can0 0C2#679F80000B006E
(1702827640.694660) can0 0C2#679F80000C006D
(1702827640.704697) can0 0C2#679F80000D006C
(1702827640.714697) can0 0C2#679F80000E006B
(1702827640.724691) can0 0C2#679F80000F006A
(1702827640.734702) can0 0C2#679F8000000079
(1702827640.744718) can0 0C2#679F8000010078
(1702827640.754711) can0 0C2#679F8000020077
(1702827640.764717) can0 0C2#679F8000030076
(1702827640.774716) can0 0C2#679F8000040075
(1702827640.784668) can0 0C2#679F8000050074
(1702827640.794694) can0 0C2#679F8000060073
(1702827640.804726) can0 0C2#679F8000070072
(1702827640.814696) can0 0C2#679F8000080071
(1702827640.824725) can0 0C2#679F8000090070
(1702827640.834693) can0 0C2#679F80000A006F
(1702827640.844678) can0 0C2#679F80000B006E
(1702827640.854715) can0 0C2#679F80000C006D
(1702827640.864723) can0 0C2#679F80000D006C
(1702827640.874673) can0 0C2#679F80000E006B
(1702827640.884704) can0 0C2#679F80000F006A
(1702827640.894683) can0 0C2#679F8000000079
(1702827640.904680) can0 0C2#679F8000010078
(1702827640.914690) can0 0C2#679F8000020077
(1702827640.924705) can0 0C2#679F8000030076
(1702827640.934704) can0 0C2#679F8000040075
(1702827640.944720) can0 0C2#679F8000050074
(1702827640.954686) can0 0C2#679F8000060073
(1702827640.964766) can0 0C2#679F8000070072
(1702827640.974730) can0 0C2#679F8000080071
(1702827640.984729) can0 0C2#679F8000090070
(1702827640.994685) can0 0C2#679F80000A006F
(1702827641.004727) can0 0C2#679F80000B006E
(1702827641.014725) can0 0C2#679F80000C006D
(1702827641.024729) can0 0C2#679F80000D006C
(1702827641.034729) can0 0C2#679F80000E006B
(1702827641.044680) can0 0C2#679F80000F006A
(1702827641.054660) can0 0C2#679F8000000079
(1702827641.064738) can0 0C2#679F8000010078
(1702827641.074717) can0 0C2#679F8000020077
(1702827641.084696) can0 0C2#679F8000030076
(1702827641.094686) can0 0C2#679F8000040075
(1702827641.104723) can0 0C2#679F8000050074
(1702827641.114720) can0 0C2#679F8000060073
(1702827641.124730) can0 0C2#679F8000070072
(1702827641.134705) can0 0C2#679F8000080071
(1702827641.144727) can0 0C2#679F8000090070
(1702827641.154709) can0 0C2#679F80000A006F
(1702827641.164728) can0 0C2#679F80000B006E
(1702827641.174723) can0 0C2#679F80000C006D
(1702827641.184727) can0 0C2#679F80000D006C
(1702827641.194712) can0 0C2#679F80000E006B
(1702827641.204701) can0 0C2#679F80000F006A
(1702827641.214684) can0 0C2#679F8000000079
(1702827641.224734) can0 0C2#679F8000010078
(1702827641.234689) can0 0C2#679F8000020077
(1702827641.244736) can0 0C2#679F8000030076
(1702827641.254707) can0 0C2#679F8000040075
(1702827641.264740) can0 0C2#679F8000050074
(1702827641.274721) can0 0C2#679F8000060073
(1702827641.284730) can0 0C2#679F8000070072
(1702827641.294723) can0 0C2#679F8000080071
(1702827641.304722) can0 0C2#679F8000090070
(1702827641.314724) can0 0C2#679F80000A006F
(1702827641.324731) can0 0C2#679F80000B006E
(1702827641.334733) can0 0C2#679F80000C006D
(1702827641.344689) can0 0C2#67B184200D0036
(1702827641.354711) can0 0C2#67B684A00E00B0
(1702827641.364715) can0 0C2#67BF81E00F0069
(1702827641.374710) can0 0C2#67CB84E0000069
(1702827641.384695) can0 0C2#67D885600100DA
(1702827641.394711) can0 0C2#67E685600200CB
(1702827641.404678) can0 0C2#67F485200300FC
(1702827641.414675) can0 0C2#680185400400CD
(1702827641.424688) can0 0C2#680D8500050000
(1702827641.434686) can0 0C2#681B8560060091
(1702827641.444680) can0 0C2#682985400700A2
(1702827641.454673) can0 0C2#68368540080094
(1702827641.464710) can0 0C2#68448540090085
(1702827641.474688) can0 0C2#685185600A0057
(1702827641.484677) can0 0C2#685F85800B0028
(1702827641.494685) can0 0C2#686E85800C0018
(1702827641.504780) can0 0C2#687B85600D002A
(1702827641.514739) can0 0C2#688985A00E00DB
(1702827641.524718) can0 0C2#689685400F002D
(1702827641.534743) can0 0C2#68A5854000002D
(1702827641.544776) can0 0C2#68B285600100FF
(1702827641.554710) can0 0C2#68C085600200F0
(1702827641.564778) can0 0C2#68CE85C0030081
(1702827641.574729) can0 0C2#68DC8520040012
(1702827641.584737) can0 0C2#68E98520050004
(1702827641.594737) can0 0C2#68F78580060095
(1702827641.604737) can0 0C2#69048580070086
(1702827641.614732) can0 0C2#69138560080096
(1702827641.624728) can0 0C2#69208560090088
(1702827641.634728) can0 0C2#692D85200A00BA
(1702827641.644728) can0 0C2#693C85C00B000A
(1702827641.654726) can0 0C2#694B85C00C00FA
(1702827641.664719) can0 0C2#695A85A00D000A
(1702827641.674728) can0 0C2#696785800E001C
(1702827641.684745) can0 0C2#697585800F000D
(1702827641.694729) can0 0C2#698485A00000ED
(1702827641.704819) can0 0C2#6992856001001E
(1702827641.714729) can0 0C2#69A085800200EF
(1702827641.724761) can0 0C2#69AD85A00300C1
(1702827641.734722) can0 0C2#69BB85600400F2
(1702827641.744721) can0 0C2#69C98540050003
(1702827641.754728) can0 0C2#69D685400600F5
(1702827641.764739) can0 0C2#69E485600700C6
(1702827641.774688) can0 0C2#69F285A0080077
(1702827641.784743) can0 0C2#6A0085200900E7
(1702827641.794739) can0 0C2#6A0C84E00A001B
(1702827641.804739) can0 0C2#6A1985600B008C
(1702827641.814723) can0 0C2#6A2785800C005D
(1702827641.824715) can0 0C2#6A3685800D004D
(1702827641.834737) can0 0C2#6A4385200E009F
(1702827641.844731) can0 0C2#6A5085400F0071
(1702827641.854698) can0 0C2#6A5E8580000032
(1702827641.864739) can0 0C2#6A6D8580010022
(1702827641.874694) can0 0C2#6A7B8580020013
(1702827641.884741) can0 0C2#6A888580030005
(1702827641.894700) can0 0C2#6A958560040017
(1702827641.904739) can0 0C2#6AA485A00500C7
(1702827641.914697) can0 0C2#6AB385800600D7
(1702827641.924741) can0 0C2#6AC185A00700A8
(1702827641.934742) can0 0C2#6ACF85A0080099
(1702827641.944746) can0 0C2#6ADD85600900CA
(1702827641.954706) can0 0C2#6AEB85400A00DB
(1702827641.964744) can0 0C2#6AF985800B008C
(1702827641.974704) can0 0C2#6B0685800C007D
(1702827641.984753) can0 0C2#6B1485800D006E
(1702827641.994709) can0 0C2#6B2285200E00BF
(1702827642.004737) can0 0C2#6B2F85200F00B1
(1702827642.014745) can0 0C2#6B3C8560000073
(1702827642.024740) can0 0C2#6B4A8580010044
(1702827642.034734) can0 0C2#6B5985A0020014
(1702827642.044745) can0 0C2#6B678560030045
(1702827642.054709) can0 0C2#6B748540040057
(1702827642.064760) can0 0C2#6B8285A00500E8
(1702827642.074848) can0 0C2#6B9185800600F8
(1702827642.084722) can0 0C2#6B9F8560070009
(1702827642.094690) can0 0C2#6BAC85800800DB
(1702827642.104753) can0 0C2#6BBA85600900EC
(1702827642.114691) can0 0C2#6BC885800A00BD
(1702827642.124730) can0 0C2#6BD685400B00EE
(1702827642.134700) can0 0C2#6BE385400C00E0
(1702827642.144714) can0 0C2#6BF185600D00B1
(1702827642.154742) can0 0C2#6BFD85200E00E4
(1702827642.164713) can0 0C2#6C0B85200F00D4
(1702827642.174751) can0 0C2#6C1985400000B5
(1702827642.184790) can0 0C2#6C2585400100A8
(1702827642.194738) can0 0C2#6C338560020079
(1702827642.204697) can0 0C2#6C4085200300AB
(1702827642.214700) can0 0C2#6C4D85000400BD
(1702827642.224840) can0 0C2#6C5A854005006F
(1702827642.234704) can0 0C2#6C688580060020
(1702827642.244773) can0 0C2#6C778580070010
(1702827642.254694) can0 0C2#6C848520080062
(1702827642.264716) can0 0C2#6C918520090054
(1702827642.274719) can0 0C2#6C9E85800A00E6
(1702827642.284832) can0 0C2#6CAC85800B00D7
(1702827642.294725) can0 0C2#6CBB85400C0007
(1702827642.304783) can0 0C2#6CC885600D00D9
(1702827642.314750) can0 0C2#6CD585400E00EB
(1702827642.324878) can0 0C2#6CE385800F009C
(1702827642.334956) can0 0C2#6CF185400000DD
(1702827642.344794) can0 0C2#6CFF85600100AE
(1702827642.354831) can0 0C2#6D0C858002007F
(1702827642.364875) can0 0C2#6D1A8560030090
(1702827642.374842) can0 0C2#6D288560040081
(1702827642.384792) can0 0C2#6D368560050072
(1702827642.394911) can0 0C2#6D438580060044
(1702827642.404919) can0 0C2#6D5185A0070015
(1702827642.414915) can0 0C2#6D5F8560080046
(1702827642.424919) can0 0C2#6D6E8540090056
(1702827642.434914) can0 0C2#6D7B85800A0008
(1702827642.444877) can0 0C2#6D8985A00B00D9
(1702827642.454881) can0 0C2#6D9885A00C00C9
(1702827642.464922) can0 0C2#6DA685600D00FA
(1702827642.474887) can0 0C2#6DB385400E000C
(1702827642.484873) can0 0C2#6DC185800F00BD
(1702827642.494874) can0 0C2#6DCF85800000BE
(1702827642.504866) can0 0C2#6DDD85400100EF
(1702827642.514839) can0 0C2#6DEB85600200C0
(1702827642.524922) can0 0C2#6DF885200300F2
(1702827642.534896) can0 0C2#6E0685A0040062
(1702827642.544922) can0 0C2#6E1485400500B3
(1702827642.554839) can0 0C2#6E2185400600A5
(1702827642.564880) can0 0C2#6E2E8560070077
(1702827642.574886) can0 0C2#6E3B8540080089
(1702827642.584871) can0 0C2#6E4A8560090059
(1702827642.594877) can0 0C2#6E5885600A004A
(1702827642.604926) can0 0C2#6E6585400B005C
(1702827642.614885) can0 0C2#6E7385A00C00ED
(1702827642.624881) can0 0C2#6E8085600D001F
(1702827642.634886) can0 0C2#6E8E85200E0050
(1702827642.644876) can0 0C2#6E9C85800F00E1
(1702827642.654869) can0 0C2#6EAA85800000E2
(1702827642.664920) can0 0C2#6EB885800100D3
(1702827642.674873) can0 0C2#6EC68540020004
(1702827642.684861) can0 0C2#6ED28520030017
(1702827642.694880) can0 0C2#6EE085800400A8
(1702827642.704926) can0 0C2#6EEF85A0050078
(1702827642.714920) can0 0C2#6EFD85600600A9
(1702827642.724879) can0 0C2#6F0A85400700BA
(1702827642.734810) can0 0C2#6F1685000800ED
(1702827642.744868) can0 0C2#6F24856009007E
(1702827642.754828) can0 0C2#6F3385800A004E
(1702827642.764877) can0 0C2#6F4185600B005F
(1702827642.774875) can0 0C2#6F4E85600C0051
(1702827642.784872) can0 0C2#6F5C85400D0062
(1702827642.794881) can0 0C2#6F6A85800E0013
(1702827642.804873) can0 0C2#6F7885600F0024
(1702827642.814888) can0 0C2#6F868560000025
(1702827642.824884) can0 0C2#6F9485A00100D6
(1702827642.834889) can0 0C2#6FA18560020008
(1702827642.844877) can0 0C2#6FB08540030018
(1702827642.854890) can0 0C2#6FBD85600400EA
(1702827642.864873) can0 0C2#6FCA85600500DC
(1702827642.874874) can0 0C2#6FD885800600AD
(1702827642.884839) can0 0C2#6FE685400700DE
(1702827642.894846) can0 0C2#6FF38500080010
(1702827642.904879) can0 0C2#700085600900A1
(1702827642.914882) can0 0C2#700E85600A0092
(1702827642.924892) can0 0C2#701C85400B00A3
(1702827642.934883) can0 0C2#702985200C00B5
(1702827642.944876) can0 0C2#703685200D00A7
(1702827642.954823) can0 0C2#704485800E0038
(1702827642.964876) can0 0C2#705285800F0029
(1702827642.974889) can0 0C2#7060854000006A
(1702827642.984874) can0 0C2#706D856001003C
(1702827642.994875) can0 0C2#707A856002002E
(1702827643.004881) can0 0C2#708985800300FE
(1702827643.014884) can0 0C2#7097854004002F
(1702827643.024834) can0 0C2#70A48560050001
(1702827643.034917) can0 0C2#70B285A00600B2
(1702827643.044833) can0 0C2#70C08540070003
(1702827643.054865) can0 0C2#70CE85400800F4
(1702827643.064883) can0 0C2#70DC85600900C5
(1702827643.074888) can0 0C2#70E985800A0097
(1702827643.084888) can0 0C2#70F785800B0088
(1702827643.094852) can0 0C2#710485200C00D9
(1702827643.104879) can0 0C2#711285000D00EA
(1702827643.114887) can0 0C2#711E85600E007D
(1702827643.124827) can0 0C2#712C85800F004E
(1702827643.134889) can0 0C2#713B856000006E
(1702827643.144843) can0 0C2#71488540010080
(1702827643.154838) can0 0C2#71558540020072
(1702827643.164892) can0 0C2#716385A0030003
(1702827643.174877) can0 0C2#717385C00400D2
(1702827643.184870) can0 0C2#71818580050003
(1702827643.194851) can0 0C2#718E85800600F5
(1702827643.204872) can0 0C2#719C85A00700C6
(1702827643.214973) can0 0C2#71AB85A00800B6
(1702827643.224913) can0 0C2#71BA85800900C6
(1702827643.234888) can0 0C2#71C785800A00B8
(1702827643.244889) can0 0C2#71D585A00B0089
(1702827643.254897) can0 0C2#71E385800C009A
(1702827643.264893) can0 0C2#71F185200D00EB
(1702827643.274897) can0 0C2#71FE85400E00BD
(1702827643.284872) can0 0C2#720C85A00F004D
(1702827643.294868) can0 0C2#721A858000006E
(1702827643.304868) can0 0C2#7228854001009F
(1702827643.314868) can0 0C2#723585000200D1
(1702827643.324869) can0 0C2#72428560030063
(1702827643.334869) can0 0C2#72508580040034
(1702827643.344863) can0 0C2#725F8580050024
(1702827643.354835) can0 0C2#726C8540060056
(1702827643.364819) can0 0C2#727A8540070047
(1702827643.374870) can0 0C2#728785800800F9
(1702827643.384884) can0 0C2#729685A00900C9
(1702827643.394901) can0 0C2#72A585800A00D9
(1702827643.404870) can0 0C2#72B385A00B00AA
(1702827643.414870) can0 0C2#72C085600C00DC
(1702827643.424870) can0 0C2#72CE85800D00AD
(1702827643.434870) can0 0C2#72DD85800E009D
(1702827643.444899) can0 0C2#72EA85600F00AF
(1702827643.454886) can0 0C2#72F885A0000070
(1702827643.464883) can0 0C2#730585600100A1
(1702827643.474892) can0 0C2#731485400200B1
(1702827643.484885) can0 0C2#732185200300C3
(1702827643.494850) can0 0C2#732E8560040075
(1702827643.504834) can0 0C2#733C8580050046
(1702827643.514914) can0 0C2#73498520060098
(1702827643.524842) can0 0C2#735785000700A9
(1702827643.534880) can0 0C2#7364858008001B
(1702827643.544861) can0 0C2#7372858009000C
(1702827643.554836) can0 0C2#738185A00A00DC
(1702827643.564840) can0 0C2#738E85400B002E
(1702827643.574872) can0 0C2#739B85200C0040
(1702827643.584884) can0 0C2#73A985800D00D1
(1702827643.594843) can0 0C2#73B785800E00C2
(1702827643.604864) can0 0C2#73C685600F00D2
(1702827643.614887) can0 0C2#73D385600000D4
(1702827643.624858) can0 0C2#73E085400100E6
(1702827643.634857) can0 0C2#73EE8580020097
(1702827643.644904) can0 0C2#73FC85600300A8
(1702827643.654900) can0 0C2#740A85400400B8
(1702827643.664915) can0 0C2#7417858005006A
(1702827643.674895) can0 0C2#7424854006009C
(1702827643.684916) can0 0C2#7432854007008D
(1702827643.694897) can0 0C2#7440856008005E
(1702827643.704902) can0 0C2#744D8540090070
(1702827643.714900) can0 0C2#745B85800A0021
(1702827643.724906) can0 0C2#746985400B0052
(1702827643.734902) can0 0C2#747685200C0064
(1702827643.744902) can0 0C2#748385400D0036
(1702827643.754891) can0 0C2#749185800E00E7
(1702827643.764900) can0 0C2#749F85800F00D8
(1702827643.774908) can0 0C2#74AD8540000019
(1702827643.784899) can0 0C2#74B9850001004C
(1702827643.794894) can0 0C2#74C785800200BD
(1702827643.804891) can0 0C2#74D585800300AE
(1702827643.814902) can0 0C2#74E385400400DF
(1702827643.824911) can0 0C2#74F185600500B0
(1702827643.834900) can0 0C2#74FD85400600C3
(1702827643.844902) can0 0C2#750B8560070093
(1702827643.854896) can0 0C2#75198560080084
(1702827643.864892) can0 0C2#752785200900B5
(1702827643.874895) can0 0C2#753485800A0047
(1702827643.884886) can0 0C2#754185400B0079
(1702827643.894880) can0 0C2#755085400C0069
(1702827643.904879) can0 0C2#755D85400D005B
(1702827643.914880) can0 0C2#756A85600E002D
(1702827643.924879) can0 0C2#757885A00F00DE
(1702827643.934880) can0 0C2#7586856000001F
(1702827643.944880) can0 0C2#75948540010030
(1702827643.954887) can0 0C2#759D84C00200A7
(1702827643.964881) can0 0C2#759D806003000A
(1702827643.974891) can0 0C2#759D8000040069
(1702827643.984902) can0 0C2#759D8000050068
(1702827643.994860) can0 0C2#759D8000060067
(1702827644.004888) can0 0C2#759D8000070066
(1702827644.014887) can0 0C2#759D8000080065
(1702827644.024922) can0 0C2#759D8000090064
(1702827644.034914) can0 0C2#759D80000A0063
(1702827644.044917) can0 0C2#759D80000B0062
(1702827644.054909) can0 0C2#759D80000C0061
(1702827644.064922) can0 0C2#759D80000D0060
(1702827644.074906) can0 0C2#759D80000E005F
(1702827644.084862) can0 0C2#759D80000F005E
(1702827644.094886) can0 0C2#759D800000006D
(1702827644.104918) can0 0C2#759D800001006C
(1702827644.114903) can0 0C2#759D800002006B
(1702827644.124928) can0 0C2#759D800003006A
(1702827644.134951) can0 0C2#759D8000040069
(1702827644.144930) can0 0C2#759D8000050068
(1702827644.154892) can0 0C2#759D8000060067
(1702827644.164931) can0 0C2#759D8000070066
(1702827644.174930) can0 0C2#759D8000080065
(1702827644.184907) can0 0C2#759D8000090064
(1702827644.194907) can0 0C2#759D80000A0063
(1702827644.204856) can0 0C2#759D80000B0062
(1702827644.214898) can0 0C2#759D80000C0061
(1702827644.224932) can0 0C2#759D80000D0060
(1702827644.234919) can0 0C2#759D80000E005F
(1702827644.244915) can0 0C2#759D80000F005E
(1702827644.255070) can0 0C2#759D800000006D
(1702827644.264954) can0 0C2#759D800001006C
(1702827644.275024) can0 0C2#759D800002006B
(1702827644.284930) can0 0C2#759D800003006A
(1702827644.295032) can0 0C2#759D8000040069
(1702827644.305023) can0 0C2#759D8000050068
(1702827644.314935) can0 0C2#759D8000060067
(1702827644.324934) can0 0C2#759D8000070066
(1702827644.335039) can0 0C2#759D8000080065
(1702827644.345032) can0 0C2#759D8000090064
(1702827644.355025) can0 0C2#759D80000A0063
(1702827644.365039) can0 0C2#759D80000B0062
(1702827644.374941) can0 0C2#759D80000C0061
(1702827644.385033) can0 0C2#759D80000D0060
(1702827644.395065) can0 0C2#759D80000E005F
(1702827644.405036) can0 0C2#759D80000F005E
(1702827644.415032) can0 0C2#759D800000006D
(1702827644.425036) can0 0C2#759D800001006C
(1702827644.435057) can0 0C2#759D800002006B
(1702827644.445035) can0 0C2#759D800003006A
(1702827644.455032) can0 0C2#759D8000040069
(1702827644.465044) can0 0C2#759D8000050068
(1702827644.474994) can0 0C2#759D8000060067
(1702827644.485043) can0 0C2#759D8000070066
(1702827644.495035) can0 0C2#759D8000080065
(1702827644.505018) can0 0C2#759D8000090064
(1702827644.515037) can0 0C2#759D80000A0063
(1702827644.525035) can0 0C2#759D80000B0062
(1702827644.535032) can0 0C2#759D80000C0061
(1702827644.545028) can0 0C2#759D80000D0060
(1702827644.554997) can0 0C2#759D80000E005F
(1702827644.565042) can0 0C2#759D80000F005E
(1702827644.575038) can0 0C2#759D800000006D
(1702827644.585045) can0 0C2#759D800001006C
(1702827644.595046) can0 0C2#759D800002006B
(1702827644.605046) can0 0C2#759D800003006A
(1702827644.615042) can0 0C2#759D8000040069
(1702827644.625032) can0 0C2#759D8000050068
(1702827644.635031) can0 0C2#759D8000060067
(1702827644.644996) can0 0C2#759D8000070066
(1702827644.655023) can0 0C2#759D8000080065
(1702827644.665030) can0 0C2#759D8000090064
(1702827644.675040) can0 0C2#759D80000A0063
(1702827644.685026) can0 0C2#759D80000B0062
(1702827644.695040) can0 0C2#759D80000C0061
(1702827644.705048) can0 0C2#759D80000D0060
(1702827644.715001) can0 0C2#759D80000E005F
(1702827644.725052) can0 0C2#759D80000F005E
(1702827644.734981) can0 0C2#759D800000006D
(1702827644.745037) can0 0C2#759D800001006C
(1702827644.754996) can0 0C2#759A7F2002004F
(1702827644.764993) can0 0C2#758D7C800300FE
(1702827644.774997) can0 0C2#75807AC00400CC
(1702827644.785027) can0 0C2#75737A80050018
(1702827644.795029) can0 0C2#75657A80060025
(1702827644.805025) can0 0C2#75577AA0070012
(1702827644.815045) can0 0C2#75497AE00800DF
(1702827644.825041) can0 0C2#753C7AA009002B
(1702827644.835043) can0 0C2#752E7A600A0078
(1702827644.845045) can0 0C2#751F7A800B0066
(1702827644.855051) can0 0C2#75127AC00C0032
(1702827644.865035) can0 0C2#75057AC00D003E
(1702827644.875034) can0 0C2#74F77AA00E006C
(1702827644.885039) can0 0C2#74E97AA00F0079
(1702827644.895041) can0 0C2#74DC7AC0000075
(1702827644.905044) can0 0C2#74CE7AC0010082
(1702827644.915041) can0 0C2#74C17AA00200AE
(1702827644.925054) can0 0C2#74B37AC003009B
(1702827644.935046) can0 0C2#74A57AC00400A8
(1702827644.945003) can0 0C2#74977AA00500D5
(1702827644.955015) can0 0C2#748A7AA00600E1
(1702827644.965039) can0 0C2#747D7AA00700ED
(1702827644.975055) can0 0C2#746F7AE00800BA
(1702827644.985044) can0 0C2#74617AC00900E7
(1702827644.995044) can0 0C2#74547AA00A0013
(1702827645.005048) can0 0C2#74477AA00B001F
(1702827645.015045) can0 0C2#74387AA00C002D
(1702827645.025037) can0 0C2#742C7B000D00D7
(1702827645.035047) can0 0C2#741E7AA00E0045
(1702827645.044999) can0 0C2#74107A800F0072
(1702827645.055037) can0 0C2#74027AA000006F
(1702827645.065048) can0 0C2#73F47AC001005D
(1702827645.075038) can0 0C2#73E87AC0020068
(1702827645.085039) can0 0C2#73DA7AC0030075
(1702827645.094997) can0 0C2#73CB7A800400C3
(1702827645.105029) can0 0C2#73BD7A800500D0
(1702827645.115046) can0 0C2#73B07AA00600BC
(1702827645.125039) can0 0C2#73A37AA00700C8
(1702827645.135094) can0 0C2#73957AA00800D5
(1702827645.145050) can0 0C2#73867AC00900C3
(1702827645.155035) can0 0C2#73797AA00A00EF
(1702827645.165065) can0 0C2#736C7A800B001B
(1702827645.175055) can0 0C2#735E7AA00C0008
(1702827645.185046) can0 0C2#73507B000D00B4
(1702827645.195047) can0 0C2#73437AE00E00E1
(1702827645.205057) can0 0C2#73367AA00F002D
(1702827645.215054) can0 0C2#73287A8000006A
(1702827645.225050) can0 0C2#731A7AA0010057
(1702827645.235049) can0 0C2#730D7AE0020023
(1702827645.245040) can0 0C2#73007AC003004F
(1702827645.255008) can0 0C2#72F27A8004009D
(1702827645.265040) can0 0C2#72E37A400500EB
(1702827645.275002) can0 0C2#72D57AC0060078
(1702827645.285063) can0 0C2#72C87AA00700A4
(1702827645.295136) can0 0C2#72BA7A800800D1
(1702827645.305003) can0 0C2#72AB7A800900DF
(1702827645.315051) can0 0C2#729E7AC00A00AB
(1702827645.325046) can0 0C2#72907AA00B00D8
(1702827645.335057) can0 0C2#72837A800C0004
(1702827645.345041) can0 0C2#72747A400D0052
(1702827645.355038) can0 0C2#72657AA00E0000
(1702827645.365044) can0 0C2#72587AA00F000C
(1702827645.375051) can0 0C2#724B7AA0000028
(1702827645.385008) can0 0C2#723D7AA0010035
(1702827645.395016) can0 0C2#722F7AC0020022
(1702827645.405047) can0 0C2#72227AC003002E
(1702827645.415136) can0 0C2#72147A8004007B
(1702827645.425046) can0 0C2#72067A600500A8
(1702827645.435056) can0 0C2#71F77A80060097
(1702827645.445003) can0 0C2#71EA7AE0070043
(1702827645.455002) can0 0C2#71DD7AA008008F
(1702827645.465050) can0 0C2#71CF7A800900BC
(1702827645.475034) can0 0C2#71C07A800A00CA
(1702827645.485007) can0 0C2#71B27A800B00D7
(1702827645.495049) can0 0C2#71A57AC00C00A3
(1702827645.505060) can0 0C2#71977A600D0010
(1702827645.515074) can0 0C2#71887A400E003E
(1702827645.525057) can0 0C2#717A7AA00F00EB
(1702827645.535100) can0 0C2#716C7A80000028
(1702827645.545069) can0 0C2#715F7AA0010014
(1702827645.555049) can0 0C2#71517AA0020021
(1702827645.565073) can0 0C2#71427AA003002F
(1702827645.575104) can0 0C2#71347AA004003C
(1702827645.585040) can0 0C2#71277A60050088
(1702827645.595060) can0 0C2#71197A60060095
(1702827645.605039) can0 0C2#710B7AA0070062
(1702827645.615058) can0 0C2#70FD7AE0080030
(1702827645.625012) can0 0C2#70F07AA009007C
(1702827645.635051) can0 0C2#70E37AA00A0088
(1702827645.645013) can0 0C2#70D47A800B00B6
(1702827645.655074) can0 0C2#70C77AE00C0062
(1702827645.665053) can0 0C2#70BA7AA00D00AE
(1702827645.675076) can0 0C2#70AC7A600E00FB
(1702827645.685032) can0 0C2#709D7A800F00E9
(1702827645.695051) can0 0C2#708F7AA00000E6
(1702827645.705048) can0 0C2#70827AE00100B2
(1702827645.715053) can0 0C2#70757AA00200FE
(1702827645.725056) can0 0C2#70677A8003002B
(1702827645.735060) can0 0C2#70597AC00400F8
(1702827645.745044) can0 0C2#704B7AC0050005
(1702827645.755076) can0 0C2#703F7AA0060030
(1702827645.765018) can0 0C2#70317AC007001D
(1702827645.775063) can0 0C2#70237AC008002A
(1702827645.785094) can0 0C2#70157AC0090037
(1702827645.795067) can0 0C2#70097AC00A0042
(1702827645.805023) can0 0C2#6FFB7A800B0090
(1702827645.815045) can0 0C2#6FED7AE00C003D
(1702827645.825064) can0 0C2#6FDF7AC00D006A
(1702827645.835068) can0 0C2#6FD27AA00E0096
(1702827645.845059) can0 0C2#6FC47A800F00C3
(1702827645.855144) can0 0C2#6FB67A800000E0
(1702827645.865052) can0 0C2#6FA87AC00100AD
(1702827645.875045) can0 0C2#6F9B7AA00200D9
(1702827645.885018) can0 0C2#6F8D7A60030026
(1702827645.895061) can0 0C2#6F7F7A80040013
(1702827645.905034) can0 0C2#6F707AC00500E1
(1702827645.915069) can0 0C2#6F637AA006000D
(1702827645.925075) can0 0C2#6F567AC00700F9
(1702827645.935061) can0 0C2#6F487AA0080026
(1702827645.945062) can0 0C2#6F397A80090054
(1702827645.955063) can0 0C2#6F2C7AA00A0040
(1702827645.965053) can0 0C2#6F1F7AA00B004C
(1702827645.975029) can0 0C2#6F117A800C0079
(1702827645.985020) can0 0C2#6F027A800D0087
(1702827645.995068) can0 0C2#6EF57AA00E0074
(1702827646.005067) can0 0C2#6EE77A800F00A1
(1702827646.015065) can0 0C2#6EDA7AA000009D
(1702827646.025064) can0 0C2#6ECC7AE001006A
(1702827646.035013) can0 0C2#6EBE7AA00200B7
(1702827646.045058) can0 0C2#6EB17AA00300C3
(1702827646.055074) can0 0C2#6EA27A60040011
(1702827646.065064) can0 0C2#6E947AA00500DE
(1702827646.075054) can0 0C2#6E877AE00600AA
(1702827646.085148) can0 0C2#6E7A7AC00700D6
(1702827646.095074) can0 0C2#6E6C7A60080043
(1702827646.105084) can0 0C2#6E5D7A80090031
(1702827646.115084) can0 0C2#6E4F7AA00A001E
(1702827646.125091) can0 0C2#6E427AC00B000A
(1702827646.135085) can0 0C2#6E357A800C0056
(1702827646.145076) can0 0C2#6E277A600D0083
(1702827646.155046) can0 0C2#6E197AC00E0030
(1702827646.165065) can0 0C2#6E0B7AA00F005D
(1702827646.175075) can0 0C2#6DFE7AC000005A
(1702827646.185081) can0 0C2#6DF17AC0010066
(1702827646.195087) can0 0C2#6DE27AC0020074
(1702827646.205088) can0 0C2#6DD57AC0030080
(1702827646.215088) can0 0C2#6DC87A800400CC
(1702827646.225091) can0 0C2#6DBA7AA00500B9
(1702827646.235035) can0 0C2#6DAC7AA00600C6
(1702827646.245044) can0 0C2#6D9E7AA00700D3
(1702827646.255069) can0 0C2#6D917AA00800DF
(1702827646.265076) can0 0C2#6D837A6009002C
(1702827646.275104) can0 0C2#6D747A800A001A
(1702827646.285097) can0 0C2#6D677AE00B00C6
(1702827646.295180) can0 0C2#6D587A800C0034
(1702827646.305165) can0 0C2#6D4B7A800D0040
(1702827646.315092) can0 0C2#6D3C7A600E006E
(1702827646.325113) can0 0C2#6D2E7A800F005B
(1702827646.335185) can0 0C2#6D217AC0000037
(1702827646.345153) can0 0C2#6D137AA0010064
(1702827646.355191) can0 0C2#6D057A600200B1
(1702827646.365106) can0 0C2#6CF77AC003005F
(1702827646.375104) can0 0C2#6CE97AA004008C
(1702827646.385107) can0 0C2#6CDC7AA0050098
(1702827646.395117) can0 0C2#6CCE7AA00600A5
(1702827646.405197) can0 0C2#6CC07AA00700B2
(1702827646.415276) can0 0C2#6CB27AC008009F
(1702827646.425190) can0 0C2#6CA57AC00900AB
(1702827646.435208) can0 0C2#6C987AA00A00D7
(1702827646.445192) can0 0C2#6C8A7AC00B00C4
(1702827646.455188) can0 0C2#6C7C7AC00C00D1
(1702827646.465243) can0 0C2#6C6F7AA00D00FD
(1702827646.475196) can0 0C2#6C617AA00E000A
(1702827646.485196) can0 0C2#6C547AC00F00F6
(1702827646.495190) can0 0C2#6C477B200000B1
(1702827646.505155) can0 0C2#6C397AC001001F
(1702827646.515199) can0 0C2#6C2C7AC002002B
(1702827646.525244) can0 0C2#6C1F7AC0030037
(1702827646.535207) can0 0C2#6C117AC0040044
(1702827646.545209) can0 0C2#6C057B200500EE
(1702827646.555195) can0 0C2#6BF87AA006007C
(1702827646.565247) can0 0C2#6BE97A600700CA
(1702827646.575195) can0 0C2#6BDB7AA0080097
(1702827646.585212) can0 0C2#6BCE7AE0090063
(1702827646.595192) can0 0C2#6BC17AC00A008F
(1702827646.605155) can0 0C2#6BB37AA00B00BC
(1702827646.615198) can0 0C2#6BA57A800C00E9
(1702827646.625158) can0 0C2#6B977AA00D00D6
(1702827646.635200) can0 0C2#6B897A800E0003
(1702827646.645207) can0 0C2#6B7C7A800F000F
(1702827646.655192) can0 0C2#6B6E7AC00000EC
(1702827646.665210) can0 0C2#6B5F7AA001001A
(1702827646.675202) can0 0C2#6B517A60020067
(1702827646.685198) can0 0C2#6B447A80030053
(1702827646.695205) can0 0C2#6B367AA0040040
(1702827646.705207) can0 0C2#6B287B000500EC
(1702827646.715200) can0 0C2#6B1B7A80060079
(1702827646.725201) can0 0C2#6B0D7A80070086
(1702827646.735203) can0 0C2#6AFE7A80080095
(1702827646.745155) can0 0C2#6AF07A800900A2
(1702827646.755195) can0 0C2#6AE37AE00A004E
(1702827646.765246) can0 0C2#6AD67AA00B009A
(1702827646.775197) can0 0C2#6AC77A800C00C8
(1702827646.785196) can0 0C2#6AB97A600D00F5
(1702827646.795248) can0 0C2#6AAA7A800E00E3
(1702827646.805220) can0 0C2#6A9D7A800F00EF
(1702827646.815197) can0 0C2#6A8F7A8000000C
(1702827646.825198) can0 0C2#6A807A6001003A
(1702827646.835202) can0 0C2#6A727A80020027
(1702827646.845205) can0 0C2#6A647A80030034
(1702827646.855200) can0 0C2#6A567A60040061
(1702827646.865210) can0 0C2#6A487A8005004E
(1702827646.875205) can0 0C2#6A3A7AA006003B
(1702827646.885206) can0 0C2#6A2C7A80070068
(1702827646.895153) can0 0C2#6A1D7A400800B6
(1702827646.905184) can0 0C2#6A107AA0090062
(1702827646.915185) can0 0C2#6A037B000A000D
(1702827646.925185) can0 0C2#69F57AE00B003C
(1702827646.935184) can0 0C2#69E87A800C00A8
(1702827646.945184) can0 0C2#69DB7AC00D0074
(1702827646.955193) can0 0C2#69CD7AE00E0061
(1702827646.965185) can0 0C2#69C17B200F002B
(1702827646.975186) can0 0C2#69B47AA00000C8
(1702827646.985186) can0 0C2#69A57A800100F6
(1702827646.995185) can0 0C2#69977AA00200E3
(1702827647.005185) can0 0C2#69897A80030010
(1702827647.015194) can0 0C2#697C7AA00400FC
(1702827647.025186) can0 0C2#696D7A6005004A
(1702827647.035187) can0 0C2#695E7A60060058
(1702827647.045158) can0 0C2#69517AA0070024
(1702827647.055194) can0 0C2#69437AA0080031
(1702827647.065207) can0 0C2#69367AA009003D
(1702827647.075199) can0 0C2#69287AA00A004A
(1702827647.085200) can0 0C2#69197A800B0078
(1702827647.095215) can0 0C2#690C7A800C0084
(1702827647.105194) can0 0C2#68FE7A800D0092
(1702827647.115214) can0 0C2#68EF7A200E0000
(1702827647.125169) can0 0C2#68E17B000F002C
(1702827647.135216) can0 0C2#68D47AA00000A9
(1702827647.145205) can0 0C2#68C67A800100D6
(1702827647.155213) can0 0C2#68B87A800200E3
(1702827647.165218) can0 0C2#68AA7A800300F0
(1702827647.175203) can0 0C2#689C7AE004009D
(1702827647.185223) can0 0C2#688F7AA00500E9
(1702827647.195211) can0 0C2#68817A60060036
(1702827647.205219) can0 0C2#68727A80070024
(1702827647.215220) can0 0C2#68657AA0080010
(1702827647.225213) can0 0C2#68577AA009001D
(1702827647.235211) can0 0C2#684A7AC00A0009
(1702827647.245257) can0 0C2#683C7A800B0056
(1702827647.255210) can0 0C2#682E7AA00C0043
(1702827647.265211) can0 0C2#68217AA00D004F
(1702827647.275205) can0 0C2#68147AC00E003B
(1702827647.285186) can0 0C2#68077AE00F0027
(1702827647.295220) can0 0C2#67F97AC0000065
(1702827647.305223) can0 0C2#67EB7AE0010052
(1702827647.315180) can0 0C2#67DE7AA002009E
(1702827647.325204) can0 0C2#67D17AA00300AA
(1702827647.335213) can0 0C2#67C47B20040035
(1702827647.345209) can0 0C2#67B67AE0050083
(1702827647.355208) can0 0C2#67A97AA00600CF
(1702827647.365173) can0 0C2#679F7B40070037
(1702827647.375175) can0 0C2#679F7F60080012
(1702827647.385214) can0 0C2#679F8000090070
(1702827647.395208) can0 0C2#679F80000A006F
(1702827647.405217) can0 0C2#679F80000B006E
(1702827647.415217) can0 0C2#679F80000C006D
(1702827647.425173) can0 0C2#679F80000D006C
(1702827647.435196) can0 0C2#679F80000E006B
(1702827647.445206) can0 0C2#679F80000F006A
(1702827647.455226) can0 0C2#679F8000000079
(1702827647.465239) can0 0C2#679F8000010078
(1702827647.475215) can0 0C2#679F8000020077
(1702827647.485218) can0 0C2#679F8000030076
(1702827647.495230) can0 0C2#679F8000040075
(1702827647.505216) can0 0C2#679F8000050074
(1702827647.515221) can0 0C2#679F8000060073
(1702827647.525227) can0 0C2#679F8000070072
(1702827647.535262) can0 0C2#679F8000080071
(1702827647.545227) can0 0C2#679F8000090070
(1702827647.555210) can0 0C2#679F80000A006F
(1702827647.565226) can0 0C2#679F80000B006E
(1702827647.575217) can0 0C2#679F80000C006D
(1702827647.585164) can0 0C2#679F80000D006C
(1702827647.595247) can0 0C2#679F80000E006B
(1702827647.605210) can0 0C2#679F80000F006A
(1702827647.615262) can0 0C2#679F8000000079
(1702827647.625207) can0 0C2#679F8000010078
(1702827647.635300) can0 0C2#679F8000020077
(1702827647.645210) can0 0C2#679F8000030076
(1702827647.655218) can0 0C2#679F8000040075
(1702827647.665212) can0 0C2#679F8000050074
(1702827647.675213) can0 0C2#679F8000060073
(1702827647.685211) can0 0C2#679F8000070072
(1702827647.695209) can0 0C2#679F8000080071
(1702827647.705209) can0 0C2#679F8000090070
(1702827647.715228) can0 0C2#679F80000A006F
(1702827647.725221) can0 0C2#679F80000B006E
(1702827647.735215) can0 0C2#679F80000C006D
(1702827647.745166) can0 0C2#679F80000D006C
(1702827647.755173) can0 0C2#679F80000E006B
(1702827647.765230) can0 0C2#679F80000F006A
(1702827647.775304) can0 0C2#679F8000000079
(1702827647.785201) can0 0C2#679F8000010078
(1702827647.795214) can0 0C2#679F8000020077
(1702827647.805220) can0 0C2#679F8000030076
(1702827647.815225) can0 0C2#679F8000040075
(1702827647.825172) can0 0C2#679F8000050074
(1702827647.835236) can0 0C2#679F8000060073
(1702827647.845178) can0 0C2#679F8000070072
(1702827647.855227) can0 0C2#679F8000080071
(1702827647.865192) can0 0C2#679F8000090070
(1702827647.875198) can0 0C2#679F80000A006F
(1702827647.885223) can0 0C2#679F80000B006E
(1702827647.895248) can0 0C2#679F80000C006D
(1702827647.905241) can0 0C2#679F80000D006C
(1702827647.915229) can0 0C2#679F80000E006B
(1702827647.925185) can0 0C2#679F80000F006A
(1702827647.935190) can0 0C2#679F8000000079
(1702827647.945218) can0 0C2#679F8000010078
(1702827647.955175) can0 0C2#679F8000020077
(1702827647.965247) can0 0C2#679F8000030076
(1702827647.975243) can0 0C2#679F8000040075
(1702827647.985237) can0 0C2#679F8000050074
(1702827647.995227) can0 0C2#679F8000060073
(1702827648.005237) can0 0C2#679F8000070072
(1702827648.015244) can0 0C2#679F8000080071
(1702827648.025246) can0 0C2#679F8000090070
(1702827648.035310) can0 0C2#679F80000A006F
(1702827648.045252) can0 0C2#679F80000B006E
(1702827648.055229) can0 0C2#679F80000C006D
(1702827648.065253) can0 0C2#679F80000D006C
(1702827648.075254) can0 0C2#679F80000E006B
(1702827648.085245) can0 0C2#679F80000F006A
(1702827648.095212) can0 0C2#679F8000000079
(1702827648.105207) can0 0C2#679F8000010078
(1702827648.115177) can0 0C2#679F8000020077
(1702827648.125352) can0 0C2#679F8000030076
(1702827648.135226) can0 0C2#679F8000040075
(1702827648.145205) can0 0C2#679F8000050074
(1702827648.155210) can0 0C2#67A28060060010
(1702827648.165197) can0 0C2#67B687800700D4
(1702827648.175216) can0 0C2#67B781600800F8
(1702827648.185225) can0 0C2#67C48400090047
(1702827648.195175) can0 0C2#67D185200A0018
(1702827648.205222) can0 0C2#67DF85200B0009
(1702827648.215311) can0 0C2#67EC85400C00DB
(1702827648.225264) can0 0C2#67F985600D00AD
(1702827648.235264) can0 0C2#680785200E00DD
(1702827648.245257) can0 0C2#681585200F00CE
(1702827648.255261) can0 0C2#682185200000D1
(1702827648.265241) can0 0C2#682F8560010082
(1702827648.275265) can0 0C2#683D8580020053
(1702827648.285246) can0 0C2#684B8540030084
(1702827648.295249) can0 0C2#68588540040076
(1702827648.305341) can0 0C2#68668580050027
(1702827648.315347) can0 0C2#68748580060018
(1702827648.325257) can0 0C2#68828560070029
(1702827648.335232) can0 0C2#6890856008001A
(1702827648.345258) can0 0C2#689C852009004D
(1702827648.355367) can0 0C2#68AB85A00A00BD
(1702827648.365262) can0 0C2#68B985600B00EE
(1702827648.375367) can0 0C2#68C785600C00DF
(1702827648.385243) can0 0C2#68D485600D00D1
(1702827648.395364) can0 0C2#68E185400E00E3
(1702827648.405240) can0 0C2#68F085600F00B3
(1702827648.415369) can0 0C2#68FE85600000B4
(1702827648.425362) can0 0C2#690B85400100C5
(1702827648.435354) can0 0C2#69188580020077
(1702827648.445358) can0 0C2#69268560030088
(1702827648.455390) can0 0C2#69358560040078
(1702827648.465355) can0 0C2#69438580050049
(1702827648.475350) can0 0C2#695185C00600FA
(1702827648.485394) can0 0C2#696085C00700EA
(1702827648.495406) can0 0C2#696E856008003B
(1702827648.505368) can0 0C2#697C856009002C
(1702827648.515358) can0 0C2#698A85C00A00BD
(1702827648.525358) can0 0C2#699885A00B00CE
(1702827648.535354) can0 0C2#69A785A00C00BE
(1702827648.545365) can0 0C2#69B485400D0010
(1702827648.555351) can0 0C2#69C185400E0002
(1702827648.565359) can0 0C2#69CF85800F00B3
(1702827648.575359) can0 0C2#69DD85600000D4
(1702827648.585361) can0 0C2#69EB85400100E5
(1702827648.595363) can0 0C2#69F885600200B7
(1702827648.605364) can0 0C2#6A0585200300E8
(1702827648.615358) can0 0C2#6A1385400400B9
(1702827648.625329) can0 0C2#6A2085200500CB
(1702827648.635366) can0 0C2#6A2E856006007C
(1702827648.645371) can0 0C2#6A3B85A007002E
(1702827648.655365) can0 0C2#6A4885200800A0
(1702827648.665367) can0 0C2#6A578520090090
(1702827648.675353) can0 0C2#6A6485600A0042
(1702827648.685364) can0 0C2#6A7285A00B00F3
(1702827648.695346) can0 0C2#6A8185A00C00E3
(1702827648.705371) can0 0C2#6A8F85600D0014
(1702827648.715364) can0 0C2#6A9C85400E0026
(1702827648.725350) can0 0C2#6AAA85A00F00B7
(1702827648.735319) can0 0C2#6AB985E0000077
(1702827648.745300) can0 0C2#6AC885A00100A7
(1702827648.755326) can0 0C2#6AD685600200D8
(1702827648.765358) can0 0C2#6AE385400300EA
(1702827648.775356) can0 0C2#6AF185A004007B
(1702827648.785374) can0 0C2#6AFF85A005006C
(1702827648.795367) can0 0C2#6B0D85400600BC
(1702827648.805369) can0 0C2#6B1A85400700AE
(1702827648.815363) can0 0C2#6B2785400800A0
(1702827648.825365) can0 0C2#6B358560090071
(1702827648.835356) can0 0C2#6B4485600A0061
(1702827648.845364) can0 0C2#6B5185600B0053
(1702827648.855364) can0 0C2#6B5F85A00C0004
(1702827648.865365) can0 0C2#6B6D85800D0015
(1702827648.875364) can0 0C2#6B7C85600E0025
(1702827648.885366) can0 0C2#6B8985600F0017
(1702827648.895364) can0 0C2#6B9785800000F8
(1702827648.905334) can0 0C2#6BA585A00100C9
(1702827648.915356) can0 0C2#6BB3854002001A
(1702827648.925386) can0 0C2#6BC1854003000B
(1702827648.935374) can0 0C2#6BCE85600400DD
(1702827648.945374) can0 0C2#6BDC85800500AE
(1702827648.955366) can0 0C2#6BEA85400600DF
(1702827648.965367) can0 0C2#6BF785400700D1
(1702827648.975360) can0 0C2#6C0384E0080024
(1702827648.985371) can0 0C2#6C118560090094
(1702827648.995376) can0 0C2#6C1F85600A0085
(1702827649.005374) can0 0C2#6C2D85200B00B6
(1702827649.015358) can0 0C2#6C3985200C00A9
(1702827649.025379) can0 0C2#6C4685000D00BB
(1702827649.035361) can0 0C2#6C5485600E004C
(1702827649.045368) can0 0C2#6C6185200F007E
(1702827649.055371) can0 0C2#6C6F856000003F
(1702827649.065369) can0 0C2#6C7C8560010031
(1702827649.075319) can0 0C2#6C898540020043
(1702827649.085379) can0 0C2#6C988520030053
(1702827649.095369) can0 0C2#6CA58540040025
(1702827649.105363) can0 0C2#6CB285600500F7
(1702827649.115391) can0 0C2#6CC185A00600A7
(1702827649.125379) can0 0C2#6CCE85400700F9
(1702827649.135376) can0 0C2#6CDC850008002A
(1702827649.145372) can0 0C2#6CE985600900BC
(1702827649.155378) can0 0C2#6CF785800A008D
(1702827649.165378) can0 0C2#6D0585A00B005D
(1702827649.175376) can0 0C2#6D1385600C008E
(1702827649.185375) can0 0C2#6D2085000D00E0
(1702827649.195383) can0 0C2#6D2E85A00E0031
(1702827649.205364) can0 0C2#6D3C85800F0042
(1702827649.215379) can0 0C2#6D4B8580000042
(1702827649.225372) can0 0C2#6D588560010054
(1702827649.235360) can0 0C2#6D668580020025
(1702827649.245368) can0 0C2#6D748580030016
(1702827649.255379) can0 0C2#6D838580040006
(1702827649.265381) can0 0C2#6D908560050018
(1702827649.275341) can0 0C2#6D9E85A00600C9
(1702827649.285378) can0 0C2#6DAC85600700FA
(1702827649.295333) can0 0C2#6DBA85600800EB
(1702827649.305379) can0 0C2#6DC885600900DC
(1702827649.315367) can0 0C2#6DD585600A00CE
(1702827649.325366) can0 0C2#6DE385A00B007F
(1702827649.335376) can0 0C2#6DF185400C00D0
(1702827649.345378) can0 0C2#6DFF85400D00C1
(1702827649.355380) can0 0C2#6E0C85400E00B2
(1702827649.365374) can0 0C2#6E1985600F0084
(1702827649.375385) can0 0C2#6E278560000085
(1702827649.385336) can0 0C2#6E358540010096
(1702827649.395386) can0 0C2#6E4285200200A8
(1702827649.405388) can0 0C2#6E4F856003005A
(1702827649.415366) can0 0C2#6E5D858004002B
(1702827649.425347) can0 0C2#6E6C854005005B
(1702827649.435377) can0 0C2#6E7A856006002C
(1702827649.445371) can0 0C2#6E86854007003F
(1702827649.455379) can0 0C2#6E9485800800F0
(1702827649.465384) can0 0C2#6EA28560090001
(1702827649.475377) can0 0C2#6EB185600A00F1
(1702827649.485377) can0 0C2#6EBE85600B00E3
(1702827649.495374) can0 0C2#6ECB85600C00D5
(1702827649.505368) can0 0C2#6ED985400D00E6
(1702827649.515372) can0 0C2#6EE785600E00B7
(1702827649.525333) can0 0C2#6EF585800F0088
(1702827649.535327) can0 0C2#6F028580000089
(1702827649.545345) can0 0C2#6F1085400100BA
(1702827649.555391) can0 0C2#6F1E85000200EB
(1702827649.565391) can0 0C2#6F2B856003007D
(1702827649.575380) can0 0C2#6F3985A004002E
(1702827649.585392) can0 0C2#6F47858005003F
(1702827649.595421) can0 0C2#6F558560060050
(1702827649.605379) can0 0C2#6F638540070061
(1702827649.615399) can0 0C2#6F7085A00800F3
(1702827649.625377) can0 0C2#6F7E8580090004
(1702827649.635373) can0 0C2#6F8D85600A0014
(1702827649.645397) can0 0C2#6F9A85600B0006
(1702827649.655421) can0 0C2#6FA785400C0018
(1702827649.665373) can0 0C2#6FB685A00D00A8
(1702827649.675375) can0 0C2#6FC485600E00D9
(1702827649.685353) can0 0C2#6FD185200F000B
(1702827649.695385) can0 0C2#6FDE85600000CD
(1702827649.705378) can0 0C2#6FEC85400100DE
(1702827649.715383) can0 0C2#6FFA85400200CF
(1702827649.725383) can0 0C2#700785400300C0
(1702827649.735383) can0 0C2#701585400400B1
(1702827649.745382) can0 0C2#70228580050063
(1702827649.755370) can0 0C2#702F85200600B5
(1702827649.765425) can0 0C2#703D85000700C6
(1702827649.775387) can0 0C2#704B8560080057
(1702827649.785383) can0 0C2#70588580090029
(1702827649.795376) can0 0C2#706685800A001A
(1702827649.805376) can0 0C2#707485400B004B
(1702827649.815388) can0 0C2#708185200C005D
(1702827649.825392) can0 0C2#708F85A00D00CE
(1702827649.835384) can0 0C2#709E85800E00DE
(1702827649.845396) can0 0C2#70AC85400F000F
(1702827649.855382) can0 0C2#70B88540000012
(1702827649.865392) can0 0C2#70C68540010003
(1702827649.875389) can0 0C2#70D485800200B4
(1702827649.885338) can0 0C2#70E285800300A5
(1702827649.895375) can0 0C2#70F085400400D6
(1702827649.905385) can0 0C2#70FD85600500A8
(1702827649.915384) can0 0C2#710A85400600B9
(1702827649.925434) can0 0C2#7118856007008A
(1702827649.935378) can0 0C2#7126854008009B
(1702827649.945381) can0 0C2#713385200900AD
(1702827649.955394) can0 0C2#714085A00A001F
(1702827649.965379) can0 0C2#714E85600B0050
(1702827649.975404) can0 0C2#715D85400C0060
(1702827649.985387) can0 0C2#716A85800D0012
(1702827649.995400) can0 0C2#717885C00E00C3
(1702827650.005395) can0 0C2#718785A00F00D3
(1702827650.015396) can0 0C2#719585800000F4
(1702827650.025408) can0 0C2#71A38540010025
(1702827650.035399) can0 0C2#71B185A00200B6
(1702827650.045398) can0 0C2#71BF85C0030087
(1702827650.055398) can0 0C2#71CF85A0040096
(1702827650.065390) can0 0C2#71DC85400500E8
(1702827650.075386) can0 0C2#71E985400600DA
(1702827650.085388) can0 0C2#71F785A007006B
(1702827650.095408) can0 0C2#7206858008007A
(1702827650.105407) can0 0C2#7213856009008C
(1702827650.115397) can0 0C2#722085400A009E
(1702827650.125407) can0 0C2#722D85400B0090
(1702827650.135374) can0 0C2#723C85600C0060
(1702827650.145395) can0 0C2#724A85600D0051
(1702827650.155415) can0 0C2#725785600E0043
(1702827650.165405) can0 0C2#726485600F0035
(1702827650.175409) can0 0C2#72728560000036
(1702827650.185435) can0 0C2#72818540010046
(1702827650.195410) can0 0C2#728F85800200F7
(1702827650.205406) can0 0C2#729C85800300E9
(1702827650.215416) can0 0C2#72AB85C0040099
(1702827650.225408) can0 0C2#72B985800500CA
(1702827650.235416) can0 0C2#72C7852006001B
(1702827650.245417) can0 0C2#72D485800700AD
(1702827650.255423) can0 0C2#72E385A008007D
(1702827650.265468) can0 0C2#72F1858009008E
(1702827650.275424) can0 0C2#72FF85600A009F
(1702827650.285388) can0 0C2#730C85400B00B0
(1702827650.295421) can0 0C2#731A85800C0061
(1702827650.305420) can0 0C2#732785400D0093
(1702827650.315406) can0 0C2#733585400E0084
(1702827650.325522) can0 0C2#734285400F0076
(1702827650.335518) can0 0C2#734F8520000098
(1702827650.345523) can0 0C2#735D8560010049
(1702827650.355476) can0 0C2#736B856002003A
(1702827650.365509) can0 0C2#7379856003002B
(1702827650.375528) can0 0C2#738685800400FD
(1702827650.385424) can0 0C2#7394856005000E
(1702827650.395517) can0 0C2#73A3854006001E
(1702827650.405474) can0 0C2#73B08540070010
(1702827650.415526) can0 0C2#73BD85800800C2
(1702827650.425494) can0 0C2#73CB85A0090093
(1702827650.435516) can0 0C2#73DA85600A00C3
(1702827650.445519) can0 0C2#73E785200B00F5
(1702827650.455520) can0 0C2#73F485800C0087
(1702827650.465542) can0 0C2#740285600D0097
(1702827650.475522) can0 0C2#741085600E0088
(1702827650.485475) can0 0C2#741E85400F0099
(1702827650.495502) can0 0C2#742B85200000BB
(1702827650.505523) can0 0C2#7438856001006D
(1702827650.515526) can0 0C2#7447858002003D
(1702827650.525496) can0 0C2#7454854003006F
(1702827650.535532) can0 0C2#74618540040061
(1702827650.545523) can0 0C2#746E8540050053
(1702827650.555538) can0 0C2#747C8560060024
(1702827650.565558) can0 0C2#748A8560070015
(1702827650.575534) can0 0C2#74978520080047
(1702827650.585525) can0 0C2#74A585800900D8
(1702827650.595525) can0 0C2#74B285400A000A
(1702827650.605526) can0 0C2#74C185400B00FA
(1702827650.615494) can0 0C2#74CE85400C00EC
(1702827650.625541) can0 0C2#74DB85800D009E
(1702827650.635529) can0 0C2#74E985800E008F
(1702827650.645530) can0 0C2#74F785400F00C0
(1702827650.655531) can0 0C2#75048500000001
(1702827650.665524) can0 0C2#751285400100B2
(1702827650.675486) can0 0C2#751F8580020064
(1702827650.685486) can0 0C2#752E8560030074
(1702827650.695527) can0 0C2#753B8540040086
(1702827650.705482) can0 0C2#754885000500B8
(1702827650.715519) can0 0C2#7555858006002A
(1702827650.725507) can0 0C2#7564858007001A
(1702827650.735484) can0 0C2#7572856008002B
(1702827650.745493) can0 0C2#757F85800900FD
(1702827650.755483) can0 0C2#758C85400A002F
(1702827650.765478) can0 0C2#759B85800B00DF
(1702827650.775517) can0 0C2#759D82A00C00BF
(1702827650.785525) can0 0C2#759D80000D0060
(1702827650.795514) can0 0C2#759D80000E005F
(1702827650.805558) can0 0C2#759D80000F005E
(1702827650.815471) can0 0C2#759D800000006D
(1702827650.825473) can0 0C2#759D800001006C
(1702827650.835506) can0 0C2#759D800002006B
(1702827650.845508) can0 0C2#759D800003006A
(1702827650.855610) can0 0C2#759D8000040069
(1702827650.865536) can0 0C2#759D8000050068
(1702827650.875520) can0 0C2#759D8000060067
(1702827650.885485) can0 0C2#759D8000070066
(1702827650.895532) can0 0C2#759D8000080065
(1702827650.905572) can0 0C2#759D8000090064
(1702827650.915525) can0 0C2#759D80000A0063
(1702827650.925576) can0 0C2#759D80000B0062
(1702827650.935531) can0 0C2#759D80000C0061
(1702827650.945577) can0 0C2#759D80000D0060
(1702827650.955544) can0 0C2#759D80000E005F
(1702827650.965576) can0 0C2#759D80000F005E
(1702827650.975532) can0 0C2#759D800000006D
(1702827650.985537) can0 0C2#759D800001006C
(1702827650.995528) can0 0C2#759D800002006B
(1702827651.005532) can0 0C2#759D800003006A
(1702827651.015474) can0 0C2#759D8000040069
(1702827651.025534) can0 0C2#759D8000050068
(1702827651.035538) can0 0C2#759D8000060067
(1702827651.045567) can0 0C2#759D8000070066
(1702827651.055533) can0 0C2#759D8000080065
(1702827651.065532) can0 0C2#759D8000090064
(1702827651.075531) can0 0C2#759D80000A0063
(1702827651.085528) can0 0C2#759D80000B0062
(1702827651.095531) can0 0C2#759D80000C0061
(1702827651.105462) can0 0C2#759D80000D0060
(1702827651.115580) can0 0C2#759D80000E005F
(1702827651.125542) can0 0C2#759D80000F005E
(1702827651.135533) can0 0C2#759D800000006D
(1702827651.145530) can0 0C2#759D800001006C
(1702827651.155496) can0 0C2#759D800002006B
(1702827651.165539) can0 0C2#759D800003006A
(1702827651.175530) can0 0C2#759D8000040069
(1702827651.185533) can0 0C2#759D8000050068
(1702827651.195537) can0 0C2#759D8000060067
(1702827651.205542) can0 0C2#759D8000070066
(1702827651.215475) can0 0C2#759D8000080065
(1702827651.225538) can0 0C2#759D8000090064
(1702827651.235533) can0 0C2#759D80000A0063
(1702827651.245538) can0 0C2#759D80000B0062
(1702827651.255534) can0 0C2#759D80000C0061
(1702827651.265528) can0 0C2#759D80000D0060
(1702827651.275526) can0 0C2#759D80000E005F
(1702827651.285488) can0 0C2#759D80000F005E
(1702827651.295524) can0 0C2#759D800000006D
(1702827651.305472) can0 0C2#759D800001006C
(1702827651.315521) can0 0C2#759D800002006B
(1702827651.325547) can0 0C2#759D800003006A
(1702827651.335544) can0 0C2#759D8000040069
(1702827651.345548) can0 0C2#759D8000050068
(1702827651.355528) can0 0C2#759D8000060067
(1702827651.365540) can0 0C2#759D8000070066
(1702827651.375616) can0 0C2#759D8000080065
(1702827651.385536) can0 0C2#759D8000090064
(1702827651.395530) can0 0C2#759D80000A0063
(1702827651.405491) can0 0C2#759D80000B0062
(1702827651.415500) can0 0C2#759D80000C0061
(1702827651.425546) can0 0C2#759D80000D0060
(1702827651.435547) can0 0C2#759D80000E005F
(1702827651.445542) can0 0C2#759D80000F005E
(1702827651.455531) can0 0C2#759D800000006D
(1702827651.465536) can0 0C2#759D800001006C
(1702827651.475535) can0 0C2#759D800002006B
(1702827651.485509) can0 0C2#759D800003006A
(1702827651.495527) can0 0C2#759D8000040069
(1702827651.505539) can0 0C2#759D8000050068
(1702827651.515536) can0 0C2#759D8000060067
(1702827651.525539) can0 0C2#759D8000070066
(1702827651.535494) can0 0C2#759D8000080065
(1702827651.545549) can0 0C2#759D8000090064
(1702827651.555547) can0 0C2#759D80000A0063
(1702827651.565545) can0 0C2#759B7FC00B00A5
(1702827651.575548) can0 0C2#75957DC00C00AC
(1702827651.585489) can0 0C2#75867B000D007C
(1702827651.595525) can0 0C2#75787AA00E00EA
(1702827651.605470) can0 0C2#756A7AA00F00F7
(1702827651.615523) can0 0C2#755D7AA0000013
(1702827651.625524) can0 0C2#75507A8001003F
(1702827651.635563) can0 0C2#75417AC002000D
(1702827651.645545) can0 0C2#75337AA003003A
(1702827651.655506) can0 0C2#75267AA0040046
(1702827651.665548) can0 0C2#75197A60050092
(1702827651.675545) can0 0C2#750B7AA006005F
(1702827651.685528) can0 0C2#74FD7B0007000C
(1702827651.695535) can0 0C2#74EF7AA008007A
(1702827651.705546) can0 0C2#74E37AA0090085
(1702827651.715588) can0 0C2#74D47AA00A0093
(1702827651.725544) can0 0C2#74C67AC00B0080
(1702827651.735549) can0 0C2#74B97AE00C006C
(1702827651.745551) can0 0C2#74AC7AA00D00B8
(1702827651.755518) can0 0C2#749E7A800E00E5
(1702827651.765529) can0 0C2#74907AC00F00B2
(1702827651.775529) can0 0C2#74827AC00000CF
(1702827651.785529) can0 0C2#74767AC00100DA
(1702827651.795579) can0 0C2#74687AC00200E7
(1702827651.805545) can0 0C2#745A7AA0030014
(1702827651.815550) can0 0C2#744C7AC0040001
(1702827651.825537) can0 0C2#743F7AC005000D
(1702827651.835550) can0 0C2#74327AA0060039
(1702827651.845538) can0 0C2#74247AE0070006
(1702827651.855554) can0 0C2#74167AA0080053
(1702827651.865563) can0 0C2#74097AA009005F
(1702827651.875550) can0 0C2#73FB7AA00A006D
(1702827651.885548) can0 0C2#73ED7AA00B007A
(1702827651.895558) can0 0C2#73E07AE00C0046
(1702827651.905548) can0 0C2#73D37AA00D0092
(1702827651.915549) can0 0C2#73C57A800E00BF
(1702827651.925552) can0 0C2#73B67A600F00ED
(1702827651.935563) can0 0C2#73A97AE0000089
(1702827651.945630) can0 0C2#739B7AC00100B6
(1702827651.955553) can0 0C2#738E7AA00200E2
(1702827651.965566) can0 0C2#73807A8003000F
(1702827651.975564) can0 0C2#73717A8004001D
(1702827651.985564) can0 0C2#73647AE00500C9
(1702827651.995556) can0 0C2#73577AC00600F5
(1702827652.005564) can0 0C2#734A7AC0070001
(1702827652.015559) can0 0C2#733C7AC008000E
(1702827652.025559) can0 0C2#732E7AA009003B
(1702827652.035553) can0 0C2#73217AC00A0027
(1702827652.045559) can0 0C2#73147A800B0073
(1702827652.055574) can0 0C2#73067AE00C0020
(1702827652.065568) can0 0C2#72F87AA00D006E
(1702827652.075559) can0 0C2#72EA7A800E009B
(1702827652.085560) can0 0C2#72DC7A600F00C8
(1702827652.095550) can0 0C2#72CE7A800000C5
(1702827652.105543) can0 0C2#72C07AC0010092
(1702827652.115549) can0 0C2#72B37AA00200BE
(1702827652.125530) can0 0C2#72A57A800300EB
(1702827652.135575) can0 0C2#72977A800400F8
(1702827652.145593) can0 0C2#72887AA00500E6
(1702827652.155574) can0 0C2#727A7AC00600D3
(1702827652.165556) can0 0C2#726D7A6007003F
(1702827652.175570) can0 0C2#725F7A6008004C
(1702827652.185597) can0 0C2#72507A8009003A
(1702827652.195594) can0 0C2#72437AC00A0006
(1702827652.205511) can0 0C2#72367AC00B0012
(1702827652.215568) can0 0C2#72287A800C005F
(1702827652.225561) can0 0C2#721A7AA00D004C
(1702827652.235517) can0 0C2#720C7AA00E0059
(1702827652.245559) can0 0C2#71FF7AA00F0066
(1702827652.255572) can0 0C2#71F17AA0000083
(1702827652.265582) can0 0C2#71E37AC0010070
(1702827652.275587) can0 0C2#71D57A800200BD
(1702827652.285564) can0 0C2#71C87AA00300A9
(1702827652.295585) can0 0C2#71BA7A40040016
(1702827652.305496) can0 0C2#71AB7A60050004
(1702827652.315722) can0 0C2#719D7AE0060091
(1702827652.325570) can0 0C2#718F7A800700FE
(1702827652.335683) can0 0C2#71817A4008004B
(1702827652.345680) can0 0C2#71737A80090018
(1702827652.355580) can0 0C2#71657A800A0025
(1702827652.365678) can0 0C2#71587AE00B00D1
(1702827652.375624) can0 0C2#714A7A800C003E
(1702827652.385599) can0 0C2#713C7A800D004B
(1702827652.395687) can0 0C2#712D7A600E0079
(1702827652.405587) can0 0C2#711F7AA00F0046
(1702827652.415680) can0 0C2#71127AC0000042
(1702827652.425674) can0 0C2#71047AA001006F
(1702827652.435680) can0 0C2#70F67AA002007D
(1702827652.445666) can0 0C2#70E97AC0030069
(1702827652.455683) can0 0C2#70DC7AC0040075
(1702827652.465679) can0 0C2#70CE7AA00500A2
(1702827652.475713) can0 0C2#70C07AA00600AF
(1702827652.485636) can0 0C2#70B27AA00700BC
(1702827652.495691) can0 0C2#70A57AC00800A8
(1702827652.505692) can0 0C2#70977A800900F5
(1702827652.515687) can0 0C2#70897A800A0002
(1702827652.525693) can0 0C2#707B7AE00B00AF
(1702827652.535676) can0 0C2#706E7AA00C00FB
(1702827652.545687) can0 0C2#70617AA00D0007
(1702827652.555642) can0 0C2#70537A800E0034
(1702827652.565678) can0 0C2#70457AA00F0021
(1702827652.575678) can0 0C2#70387AE00000FD
(1702827652.585685) can0 0C2#702A7AE001000A
(1702827652.595677) can0 0C2#701D7AA0020056
(1702827652.605718) can0 0C2#700F7AA0030063
(1702827652.615676) can0 0C2#70017AA0040070
(1702827652.625683) can0 0C2#6FF47AE005003D
(1702827652.635716) can0 0C2#6FE77AC0060069
(1702827652.645642) can0 0C2#6FD97A800700B6
(1702827652.655695) can0 0C2#6FCB7AA00800A3
(1702827652.665693) can0 0C2#6FBD7AA00900B0
(1702827652.675696) can0 0C2#6FB07A800A00DC
(1702827652.685694) can0 0C2#6FA27AA00B00C9
(1702827652.695696) can0 0C2#6F947AA00C00D6
(1702827652.705688) can0 0C2#6F867AA00D00E3
(1702827652.715692) can0 0C2#6F797A800E000F
(1702827652.725688) can0 0C2#6F6A7A800F001D
(1702827652.735686) can0 0C2#6F5D7AC00000F9
(1702827652.745687) can0 0C2#6F4F7AE00100E6
(1702827652.755688) can0 0C2#6F427A80020052
(1702827652.765673) can0 0C2#6F347A6003007F
(1702827652.775687) can0 0C2#6F257A8004006D
(1702827652.785690) can0 0C2#6F177AE005001A
(1702827652.795695) can0 0C2#6F0A7AA0060066
(1702827652.805702) can0 0C2#6EFC7A600700B4
(1702827652.815695) can0 0C2#6EEE7AA0080081
(1702827652.825687) can0 0C2#6EE07AA009008E
(1702827652.835693) can0 0C2#6ED47AE00A0059
(1702827652.845695) can0 0C2#6EC67AC00B0086
(1702827652.855690) can0 0C2#6EB87A600C00F3
(1702827652.865673) can0 0C2#6EA97AA00D00C1
(1702827652.875637) can0 0C2#6E9B7A800E00EE
(1702827652.885682) can0 0C2#6E8E7AA00F00DA
(1702827652.895655) can0 0C2#6E817AC00000D6
(1702827652.905663) can0 0C2#6E727A80010024
(1702827652.915651) can0 0C2#6E657AC00200F0
(1702827652.925656) can0 0C2#6E577A8003003D
(1702827652.935658) can0 0C2#6E4A7AA0040029
(1702827652.945659) can0 0C2#6E3B7AA0050037
(1702827652.955694) can0 0C2#6E2D7AA0060044
(1702827652.965655) can0 0C2#6E207AA0070050
(1702827652.975651) can0 0C2#6E127A8008007D
(1702827652.985672) can0 0C2#6E047AA009006A
(1702827652.995693) can0 0C2#6DF77AE00A0037
(1702827653.005703) can0 0C2#6DEA7B000B0022
(1702827653.015656) can0 0C2#6DDD7AA00C008F
(1702827653.025694) can0 0C2#6DCE7A800D00BD
(1702827653.035700) can0 0C2#6DC07AA00E00AA
(1702827653.045700) can0 0C2#6DB47B000F0054
(1702827653.055694) can0 0C2#6DA67A800000F2
(1702827653.065695) can0 0C2#6D987A800100FF
(1702827653.075701) can0 0C2#6D897A8002000D
(1702827653.085699) can0 0C2#6D7B7A8003001A
(1702827653.095701) can0 0C2#6D6E7AA0040006
(1702827653.105699) can0 0C2#6D607A80050033
(1702827653.115699) can0 0C2#6D517A60060061
(1702827653.125702) can0 0C2#6D447AC007000D
(1702827653.135702) can0 0C2#6D367A8008005A
(1702827653.145698) can0 0C2#6D287A60090087
(1702827653.155699) can0 0C2#6D1A7AC00A0034
(1702827653.165742) can0 0C2#6D0C7AA00B0061
(1702827653.175694) can0 0C2#6CFE7A600C00AF
(1702827653.185695) can0 0C2#6CF17AA00D007B
(1702827653.195743) can0 0C2#6CE27A800E00A9
(1702827653.205649) can0 0C2#6CD57AE00F0055
(1702827653.215673) can0 0C2#6CC77AC0000092
(1702827653.225674) can0 0C2#6CBA7A800100DE
(1702827653.235674) can0 0C2#6CAC7A800200EB
(1702827653.245674) can0 0C2#6C9E7AC00300B8
(1702827653.255674) can0 0C2#6C917AC00400C4
(1702827653.265644) can0 0C2#6C847AA00500F0
(1702827653.275676) can0 0C2#6C767A8006001D
(1702827653.285675) can0 0C2#6C687AE00700CA
(1702827653.295675) can0 0C2#6C5B7AC00800F6
(1702827653.305675) can0 0C2#6C4E7AE00900E2
(1702827653.315699) can0 0C2#6C417AC00A000E
(1702827653.325676) can0 0C2#6C337AA00B003B
(1702827653.335682) can0 0C2#6C257AE00C0008
(1702827653.345676) can0 0C2#6C197AE00D0013
(1702827653.355677) can0 0C2#6C0C7AC00E003F
(1702827653.365711) can0 0C2#6BFE7AE00F002D
(1702827653.375709) can0 0C2#6BF07AC000006A
(1702827653.385744) can0 0C2#6BE37AA0010096
(1702827653.395694) can0 0C2#6BD57A800200C3
(1702827653.405782) can0 0C2#6BC77AA00300B0
(1702827653.415694) can0 0C2#6BBA7B0004005B
(1702827653.425692) can0 0C2#6BAC7A800500E9
(1702827653.435695) can0 0C2#6B9E7A60060016
(1702827653.445707) can0 0C2#6B907A80070003
(1702827653.455712) can0 0C2#6B827AA00800F0
(1702827653.465697) can0 0C2#6B757AE00900BC
(1702827653.475708) can0 0C2#6B677AA00A0009
(1702827653.485704) can0 0C2#6B587A400B0077
(1702827653.495705) can0 0C2#6B4A7AA00C0024
(1702827653.505699) can0 0C2#6B3D7AC00D0010
(1702827653.515689) can0 0C2#6B317AC00E001B
(1702827653.525701) can0 0C2#6B227AA00F0049
(1702827653.535667) can0 0C2#6B147A80000086
(1702827653.545709) can0 0C2#6B067AA0010073
(1702827653.555702) can0 0C2#6AF87A600200C1
(1702827653.565665) can0 0C2#6AEB7A800300AD
(1702827653.575665) can0 0C2#6ADD7AA004009A
(1702827653.585710) can0 0C2#6ACF7AC0050087
(1702827653.595690) can0 0C2#6AC17A800600D4
(1702827653.605718) can0 0C2#6AB27A20070042
(1702827653.615692) can0 0C2#6AA37A60080010
(1702827653.625696) can0 0C2#6A957AC00900BD
(1702827653.635686) can0 0C2#6A887A800A0009
(1702827653.645700) can0 0C2#6A7A7A400B0056
(1702827653.655696) can0 0C2#6A6B7A600C0044
(1702827653.665696) can0 0C2#6A5D7A800D0031
(1702827653.675698) can0 0C2#6A507AC00E00FD
(1702827653.685695) can0 0C2#6A427A800F004A
(1702827653.695698) can0 0C2#6A337A80000068
(1702827653.705698) can0 0C2#6A257A80010075
(1702827653.715700) can0 0C2#6A177A600200A2
(1702827653.725701) can0 0C2#6A0A7AC003004E
(1702827653.735713) can0 0C2#69FD7B0004001A
(1702827653.745695) can0 0C2#69EF7AA0050088
(1702827653.755690) can0 0C2#69E17AA0060095
(1702827653.765707) can0 0C2#69D57AE0070060
(1702827653.775652) can0 0C2#69C87AC008008C
(1702827653.785675) can0 0C2#69BA7AE0090079
(1702827653.795741) can0 0C2#69AC7AC00A00A6
(1702827653.805657) can0 0C2#699F7A800B00F2
(1702827653.815750) can0 0C2#69917A800C00FF
(1702827653.825659) can0 0C2#69827A600D002D
(1702827653.835701) can0 0C2#69747AA00E00FA
(1702827653.845750) can0 0C2#69667A800F0027
(1702827653.855699) can0 0C2#69597A60000063
(1702827653.865755) can0 0C2#694A7A80010051
(1702827653.875713) can0 0C2#693C7AA002003E
(1702827653.885751) can0 0C2#692F7AE003000A
(1702827653.895700) can0 0C2#69227A80040076
(1702827653.905751) can0 0C2#69137A400500C4
(1702827653.915717) can0 0C2#69057AA0060071
(1702827653.925719) can0 0C2#68F67A800700A0
(1702827653.935714) can0 0C2#68E97A800800AC
(1702827653.945702) can0 0C2#68DC7AA0090098
(1702827653.955719) can0 0C2#68CD7A800A00C6
(1702827653.965710) can0 0C2#68BF7AA00B00B3
(1702827653.975703) can0 0C2#68B27AA00C00BF
(1702827653.985710) can0 0C2#68A47A800D00EC
(1702827653.995669) can0 0C2#68967AC00E00B9
(1702827654.005639) can0 0C2#68887A800F0006
